! Touchstone file generated by xDriver.py
# Hz S RI R 50
! Freq ReS11 ImS11 ReS21 ImS21 ReS12 ImS12 ReS22 ImS22
1.000000e+06 0.322060 -0.020450 0.613982 0.002284 0.613982 0.002284 0.322060 -0.020450
1.013911e+06 0.321304 -0.009972 0.613800 0.006209 0.613800 0.006209 0.321304 -0.009972
1.028016e+06 0.321174 -0.008691 0.613618 0.006585 0.613618 0.006585 0.321174 -0.008691
1.042317e+06 0.321369 -0.009049 0.613682 0.007093 0.613682 0.007093 0.321369 -0.009049
1.056818e+06 0.320295 -0.006789 0.613766 0.007474 0.613766 0.007474 0.320295 -0.006789
1.071519e+06 0.334482 -0.007420 0.613872 0.007651 0.613872 0.007651 0.334482 -0.007420
1.086426e+06 0.335028 -0.006975 0.614006 0.007640 0.614006 0.007640 0.335028 -0.006975
1.101539e+06 0.334744 -0.006653 0.613832 0.007896 0.613832 0.007896 0.334744 -0.006653
1.116863e+06 0.334022 -0.005780 0.613932 0.008507 0.613932 0.008507 0.334022 -0.005780
1.132400e+06 0.334330 -0.006294 0.613981 0.008416 0.613981 0.008416 0.334330 -0.006294
1.148154e+06 0.333961 -0.005232 0.613813 0.008599 0.613813 0.008599 0.333961 -0.005232
1.164126e+06 0.333593 -0.005150 0.614018 0.008901 0.614018 0.008901 0.333593 -0.005150
1.180321e+06 0.333533 -0.004477 0.614178 0.009061 0.614178 0.009061 0.333533 -0.004477
1.196741e+06 0.333501 -0.003975 0.614248 0.009165 0.614248 0.009165 0.333501 -0.003975
1.213389e+06 0.333218 -0.003945 0.614266 0.009330 0.614266 0.009330 0.333218 -0.003945
1.230269e+06 0.333723 -0.004618 0.614090 0.009355 0.614090 0.009355 0.333723 -0.004618
1.247384e+06 0.333506 -0.003397 0.614243 0.009738 0.614243 0.009738 0.333506 -0.003397
1.264736e+06 0.333482 -0.003100 0.614522 0.009728 0.614522 0.009728 0.333482 -0.003100
1.282331e+06 0.333069 -0.003565 0.614513 0.009892 0.614513 0.009892 0.333069 -0.003565
1.300170e+06 0.333011 -0.002331 0.614469 0.010206 0.614469 0.010206 0.333011 -0.002331
1.318257e+06 0.333489 -0.002546 0.614581 0.010128 0.614581 0.010128 0.333489 -0.002546
1.336596e+06 0.333302 -0.001739 0.614434 0.010196 0.614434 0.010196 0.333302 -0.001739
1.355189e+06 0.333119 -0.001084 0.614833 0.010464 0.614833 0.010464 0.333119 -0.001084
1.374042e+06 0.332433 -0.001179 0.614568 0.010536 0.614568 0.010536 0.332433 -0.001179
1.393157e+06 0.332772 -0.001297 0.614668 0.010753 0.614668 0.010753 0.332772 -0.001297
1.412538e+06 0.332585 -0.000624 0.614777 0.010899 0.614777 0.010899 0.332585 -0.000624
1.432188e+06 0.332625 -0.000098 0.614655 0.011329 0.614655 0.011329 0.332625 -0.000098
1.452112e+06 0.332113 -0.000157 0.614807 0.011039 0.614807 0.011039 0.332113 -0.000157
1.472313e+06 0.332157 0.001379 0.614685 0.011324 0.614685 0.011324 0.332157 0.001379
1.492794e+06 0.332322 0.001148 0.614694 0.011603 0.614694 0.011603 0.332322 0.001148
1.513561e+06 0.331823 0.000392 0.614768 0.011728 0.614768 0.011728 0.331823 0.000392
1.534617e+06 0.332069 -0.000275 0.614826 0.011758 0.614826 0.011758 0.332069 -0.000275
1.555966e+06 0.331797 0.001092 0.614730 0.011957 0.614730 0.011957 0.331797 0.001092
1.577611e+06 0.331805 0.002994 0.614919 0.012037 0.614919 0.012037 0.331805 0.002994
1.599558e+06 0.331739 0.001609 0.614812 0.012243 0.614812 0.012243 0.331739 0.001609
1.621810e+06 0.331724 0.001533 0.614837 0.012681 0.614837 0.012681 0.331724 0.001533
1.644372e+06 0.331414 0.001613 0.614850 0.012528 0.614850 0.012528 0.331414 0.001613
1.667247e+06 0.331337 0.002137 0.614769 0.012982 0.614769 0.012982 0.331337 0.002137
1.690441e+06 0.331370 0.001688 0.615060 0.013176 0.615060 0.013176 0.331370 0.001688
1.713957e+06 0.331073 0.001507 0.614978 0.013154 0.614978 0.013154 0.331073 0.001507
1.737801e+06 0.331200 0.001855 0.614954 0.013472 0.614954 0.013472 0.331200 0.001855
1.761976e+06 0.331107 0.002969 0.615037 0.013496 0.615037 0.013496 0.331107 0.002969
1.786488e+06 0.331109 0.002149 0.614912 0.013749 0.614912 0.013749 0.331109 0.002149
1.811340e+06 0.330539 0.002223 0.615051 0.013806 0.615051 0.013806 0.330539 0.002223
1.836538e+06 0.330616 0.002433 0.615168 0.014000 0.615168 0.014000 0.330616 0.002433
1.862087e+06 0.331101 0.001940 0.615284 0.013921 0.615284 0.013921 0.331101 0.001940
1.887991e+06 0.330396 0.002931 0.615250 0.013702 0.615250 0.013702 0.330396 0.002931
1.914256e+06 0.329845 0.002464 0.615334 0.014151 0.615334 0.014151 0.329845 0.002464
1.940886e+06 0.330105 0.002798 0.615373 0.014314 0.615373 0.014314 0.330105 0.002798
1.967886e+06 0.330044 0.002565 0.615332 0.014569 0.615332 0.014569 0.330044 0.002565
1.995262e+06 0.330162 0.003255 0.615478 0.014336 0.615478 0.014336 0.330162 0.003255
2.023019e+06 0.329933 0.003227 0.615551 0.014641 0.615551 0.014641 0.329933 0.003227
2.051162e+06 0.330465 0.003836 0.615670 0.014502 0.615670 0.014502 0.330465 0.003836
2.079697e+06 0.329834 0.003548 0.615773 0.014878 0.615773 0.014878 0.329834 0.003548
2.108628e+06 0.329599 0.003603 0.615610 0.014832 0.615610 0.014832 0.329599 0.003603
2.137962e+06 0.329775 0.003911 0.615683 0.014935 0.615683 0.014935 0.329775 0.003911
2.167704e+06 0.329265 0.003462 0.615687 0.014634 0.615687 0.014634 0.329265 0.003462
2.197860e+06 0.329699 0.003988 0.615875 0.014905 0.615875 0.014905 0.329699 0.003988
2.228435e+06 0.329313 0.003855 0.615964 0.014916 0.615964 0.014916 0.329313 0.003855
2.259436e+06 0.329308 0.004370 0.615933 0.015111 0.615933 0.015111 0.329308 0.004370
2.290868e+06 0.329202 0.003995 0.615884 0.015044 0.615884 0.015044 0.329202 0.003995
2.322737e+06 0.329004 0.003814 0.615980 0.015226 0.615980 0.015226 0.329004 0.003814
2.355049e+06 0.328839 0.004093 0.616014 0.015201 0.616014 0.015201 0.328839 0.004093
2.387811e+06 0.328703 0.004930 0.615952 0.015464 0.615952 0.015464 0.328703 0.004930
2.421029e+06 0.328719 0.003869 0.615988 0.015469 0.615988 0.015469 0.328719 0.003869
2.454709e+06 0.328607 0.003762 0.615965 0.015524 0.615965 0.015524 0.328607 0.003762
2.488857e+06 0.328881 0.003701 0.615921 0.015686 0.615921 0.015686 0.328881 0.003701
2.523481e+06 0.328521 0.003234 0.615896 0.015531 0.615896 0.015531 0.328521 0.003234
2.558586e+06 0.328410 0.003029 0.616038 0.015716 0.616038 0.015716 0.328410 0.003029
2.594179e+06 0.328815 0.003346 0.616052 0.015876 0.616052 0.015876 0.328815 0.003346
2.630268e+06 0.328154 0.003193 0.615997 0.015975 0.615997 0.015975 0.328154 0.003193
2.666859e+06 0.328285 0.003758 0.616096 0.015988 0.616096 0.015988 0.328285 0.003758
2.703958e+06 0.328413 0.002460 0.616139 0.015973 0.616139 0.015973 0.328413 0.002460
2.741574e+06 0.328032 0.002454 0.616193 0.015927 0.616193 0.015927 0.328032 0.002454
2.779713e+06 0.328276 0.002542 0.616043 0.016332 0.616043 0.016332 0.328276 0.002542
2.818383e+06 0.328371 0.002104 0.616152 0.016391 0.616152 0.016391 0.328371 0.002104
2.857591e+06 0.327943 0.003121 0.616261 0.016265 0.616261 0.016265 0.327943 0.003121
2.897344e+06 0.327857 0.001763 0.616238 0.016655 0.616238 0.016655 0.327857 0.001763
2.937650e+06 0.327659 0.001500 0.616335 0.016570 0.616335 0.016570 0.327659 0.001500
2.978516e+06 0.327597 0.002072 0.616241 0.016471 0.616241 0.016471 0.327597 0.002072
3.019952e+06 0.327900 0.001956 0.616383 0.016461 0.616383 0.016461 0.327900 0.001956
3.061963e+06 0.327293 0.002179 0.616247 0.016500 0.616247 0.016500 0.327293 0.002179
3.104560e+06 0.327463 0.001759 0.616468 0.016787 0.616468 0.016787 0.327463 0.001759
3.147748e+06 0.327572 0.001545 0.616343 0.016524 0.616343 0.016524 0.327572 0.001545
3.191538e+06 0.327068 0.001538 0.616430 0.016749 0.616430 0.016749 0.327068 0.001538
3.235937e+06 0.327305 0.001543 0.616419 0.016573 0.616419 0.016573 0.327305 0.001543
3.280953e+06 0.327244 0.001262 0.616457 0.016663 0.616457 0.016663 0.327244 0.001262
3.326596e+06 0.327053 0.001362 0.616431 0.016659 0.616431 0.016659 0.327053 0.001362
3.372873e+06 0.327123 0.001533 0.616482 0.016574 0.616482 0.016574 0.327123 0.001533
3.419794e+06 0.326673 0.000547 0.616516 0.016384 0.616516 0.016384 0.326673 0.000547
3.467369e+06 0.326808 0.000591 0.616397 0.016627 0.616397 0.016627 0.326808 0.000591
3.515604e+06 0.326649 0.000180 0.616386 0.016588 0.616386 0.016588 0.326649 0.000180
3.564511e+06 0.326728 0.000051 0.616415 0.016648 0.616415 0.016648 0.326728 0.000051
3.614099e+06 0.326594 -0.000719 0.616374 0.016852 0.616374 0.016852 0.326594 -0.000719
3.664376e+06 0.326525 0.000102 0.616378 0.016659 0.616378 0.016659 0.326525 0.000102
3.715352e+06 0.326085 0.000052 0.616379 0.016675 0.616379 0.016675 0.326085 0.000052
3.767038e+06 0.326337 -0.001149 0.616463 0.016683 0.616463 0.016683 0.326337 -0.001149
3.819443e+06 0.326344 -0.000878 0.616421 0.016363 0.616421 0.016363 0.326344 -0.000878
3.872576e+06 0.326181 -0.001518 0.616361 0.016600 0.616361 0.016600 0.326181 -0.001518
3.926449e+06 0.326050 -0.001250 0.616340 0.016650 0.616340 0.016650 0.326050 -0.001250
3.981072e+06 0.326097 -0.002255 0.616259 0.016468 0.616259 0.016468 0.326097 -0.002255
4.036454e+06 0.325987 -0.002787 0.616130 0.016654 0.616130 0.016654 0.325987 -0.002787
4.092607e+06 0.326022 -0.002745 0.616064 0.016876 0.616064 0.016876 0.326022 -0.002745
4.149540e+06 0.325802 -0.003786 0.616035 0.017075 0.616035 0.017075 0.325802 -0.003786
4.207266e+06 0.326041 -0.003787 0.616070 0.016983 0.616070 0.016983 0.326041 -0.003787
4.265795e+06 0.326005 -0.004202 0.616095 0.017242 0.616095 0.017242 0.326005 -0.004202
4.325138e+06 0.325948 -0.004738 0.616097 0.017469 0.616097 0.017469 0.325948 -0.004738
4.385307e+06 0.325400 -0.005288 0.616135 0.017466 0.616135 0.017466 0.325400 -0.005288
4.446313e+06 0.325701 -0.005370 0.616251 0.017423 0.616251 0.017423 0.325701 -0.005370
4.508167e+06 0.324833 -0.005452 0.616366 0.017419 0.616366 0.017419 0.324833 -0.005452
4.570882e+06 0.325580 -0.005775 0.616337 0.017311 0.616337 0.017311 0.325580 -0.005775
4.634469e+06 0.325207 -0.005390 0.616335 0.017616 0.616335 0.017616 0.325207 -0.005390
4.698941e+06 0.325424 -0.005593 0.616430 0.017461 0.616430 0.017461 0.325424 -0.005593
4.764310e+06 0.325219 -0.006293 0.616397 0.017481 0.616397 0.017481 0.325219 -0.006293
4.830588e+06 0.325494 -0.007060 0.616388 0.017417 0.616388 0.017417 0.325494 -0.007060
4.897788e+06 0.325102 -0.007097 0.616518 0.017471 0.616518 0.017471 0.325102 -0.007097
4.965923e+06 0.325042 -0.007201 0.616447 0.017407 0.616447 0.017407 0.325042 -0.007201
5.035006e+06 0.324874 -0.008111 0.616417 0.017232 0.616417 0.017232 0.324874 -0.008111
5.105050e+06 0.324580 -0.008834 0.616468 0.017451 0.616468 0.017451 0.324580 -0.008834
5.176068e+06 0.324339 -0.009547 0.616342 0.017668 0.616342 0.017668 0.324339 -0.009547
5.248075e+06 0.324623 -0.009057 0.616298 0.017303 0.616298 0.017303 0.324623 -0.009057
5.321083e+06 0.324336 -0.010097 0.616284 0.017275 0.616284 0.017275 0.324336 -0.010097
5.395106e+06 0.324349 -0.011471 0.616293 0.017430 0.616293 0.017430 0.324349 -0.011471
5.470160e+06 0.324417 -0.011463 0.616310 0.017654 0.616310 0.017654 0.324417 -0.011463
5.546257e+06 0.324259 -0.011452 0.616295 0.017366 0.616295 0.017366 0.324259 -0.011452
5.623413e+06 0.324092 -0.012582 0.616467 0.017469 0.616467 0.017469 0.324092 -0.012582
5.701643e+06 0.323894 -0.013073 0.616455 0.017664 0.616455 0.017664 0.323894 -0.013073
5.780960e+06 0.324529 -0.013534 0.616357 0.017406 0.616357 0.017406 0.324529 -0.013534
5.861382e+06 0.323986 -0.014451 0.616473 0.017510 0.616473 0.017510 0.323986 -0.014451
5.942922e+06 0.323916 -0.015325 0.616420 0.017345 0.616420 0.017345 0.323916 -0.015325
6.025596e+06 0.323658 -0.015161 0.616525 0.017237 0.616525 0.017237 0.323658 -0.015161
6.109420e+06 0.323588 -0.016448 0.616514 0.017443 0.616514 0.017443 0.323588 -0.016448
6.194411e+06 0.323675 -0.016351 0.616591 0.017220 0.616591 0.017220 0.323675 -0.016351
6.280584e+06 0.323580 -0.017794 0.616499 0.017193 0.616499 0.017193 0.323580 -0.017794
6.367955e+06 0.323187 -0.018116 0.616522 0.017078 0.616522 0.017078 0.323187 -0.018116
6.456542e+06 0.323052 -0.019138 0.616510 0.017075 0.616510 0.017075 0.323052 -0.019138
6.546362e+06 0.323134 -0.019532 0.616546 0.017117 0.616546 0.017117 0.323134 -0.019532
6.637431e+06 0.322729 -0.020207 0.616504 0.017229 0.616504 0.017229 0.322729 -0.020207
6.729767e+06 0.322929 -0.021043 0.616548 0.016865 0.616548 0.016865 0.322929 -0.021043
6.823387e+06 0.323150 -0.020919 0.616510 0.017072 0.616510 0.017072 0.323150 -0.020919
6.918310e+06 0.322649 -0.021417 0.616567 0.016862 0.616567 0.016862 0.322649 -0.021417
7.014553e+06 0.322754 -0.022552 0.616565 0.017106 0.616565 0.017106 0.322754 -0.022552
7.112135e+06 0.322244 -0.022764 0.616578 0.016884 0.616578 0.016884 0.322244 -0.022764
7.211075e+06 0.322482 -0.024443 0.616529 0.017005 0.616529 0.017005 0.322482 -0.024443
7.311391e+06 0.322212 -0.024093 0.616495 0.016965 0.616495 0.016965 0.322212 -0.024093
7.413102e+06 0.321984 -0.025417 0.616619 0.017067 0.616619 0.017067 0.321984 -0.025417
7.516229e+06 0.321730 -0.026125 0.616516 0.016764 0.616516 0.016764 0.321730 -0.026125
7.620790e+06 0.321738 -0.027295 0.616560 0.016887 0.616560 0.016887 0.321738 -0.027295
7.726806e+06 0.321671 -0.027080 0.616573 0.016589 0.616573 0.016589 0.321671 -0.027080
7.834296e+06 0.321571 -0.027906 0.616617 0.016689 0.616617 0.016689 0.321571 -0.027906
7.943282e+06 0.321707 -0.028916 0.616612 0.016555 0.616612 0.016555 0.321707 -0.028916
8.053784e+06 0.321246 -0.030227 0.616503 0.016268 0.616503 0.016268 0.321246 -0.030227
8.165824e+06 0.321214 -0.030955 0.616424 0.016699 0.616424 0.016699 0.321214 -0.030955
8.279422e+06 0.320749 -0.031685 0.616573 0.016278 0.616573 0.016278 0.320749 -0.031685
8.394600e+06 0.320794 -0.032858 0.616486 0.015884 0.616486 0.015884 0.320794 -0.032858
8.511380e+06 0.320838 -0.034562 0.616229 0.016154 0.616229 0.016154 0.320838 -0.034562
8.629785e+06 0.320721 -0.033805 0.616176 0.016212 0.616176 0.016212 0.320721 -0.033805
8.749838e+06 0.320470 -0.035231 0.616132 0.015920 0.616132 0.015920 0.320470 -0.035231
8.871560e+06 0.320130 -0.036765 0.616036 0.015793 0.616036 0.015793 0.320130 -0.036765
8.994976e+06 0.320204 -0.036985 0.615880 0.015778 0.615880 0.015778 0.320204 -0.036985
9.120108e+06 0.320012 -0.038233 0.615444 0.016081 0.615444 0.016081 0.320012 -0.038233
9.246982e+06 0.319584 -0.039417 0.615695 0.015754 0.615695 0.015754 0.319584 -0.039417
9.375620e+06 0.319620 -0.040499 0.615660 0.015557 0.615660 0.015557 0.319620 -0.040499
9.506048e+06 0.319278 -0.041622 0.615424 0.015741 0.615424 0.015741 0.319278 -0.041622
9.638290e+06 0.318756 -0.042441 0.615496 0.016073 0.615496 0.016073 0.318756 -0.042441
9.772372e+06 0.319015 -0.043207 0.615430 0.015973 0.615430 0.015973 0.319015 -0.043207
9.908319e+06 0.318737 -0.044740 0.615413 0.015800 0.615413 0.015800 0.318737 -0.044740
1.004616e+07 0.318764 -0.046230 0.615640 0.015775 0.615640 0.015775 0.318764 -0.046230
1.018591e+07 0.318008 -0.047104 0.615641 0.016134 0.615641 0.016134 0.318008 -0.047104
1.032761e+07 0.318162 -0.048194 0.615844 0.016131 0.615844 0.016131 0.318162 -0.048194
1.047129e+07 0.318015 -0.050554 0.615885 0.015988 0.615885 0.015988 0.318015 -0.050554
1.061696e+07 0.317873 -0.052202 0.615996 0.015624 0.615996 0.015624 0.317873 -0.052202
1.076465e+07 0.317852 -0.052935 0.616210 0.015568 0.616210 0.015568 0.317852 -0.052935
1.091440e+07 0.317350 -0.054098 0.616127 0.015127 0.616127 0.015127 0.317350 -0.054098
1.106624e+07 0.317144 -0.056548 0.615922 0.015417 0.615922 0.015417 0.317144 -0.056548
1.122018e+07 0.317142 -0.057791 0.615800 0.015579 0.615800 0.015579 0.317142 -0.057791
1.137627e+07 0.317052 -0.059398 0.615896 0.015979 0.615896 0.015979 0.317052 -0.059398
1.153453e+07 0.316506 -0.061175 0.615943 0.016027 0.615943 0.016027 0.316506 -0.061175
1.169499e+07 0.316382 -0.062516 0.616178 0.016272 0.616178 0.016272 0.316382 -0.062516
1.185769e+07 0.316024 -0.064692 0.616196 0.016525 0.616196 0.016525 0.316024 -0.064692
1.202264e+07 0.315967 -0.066087 0.616348 0.016942 0.616348 0.016942 0.315967 -0.066087
1.218990e+07 0.315210 -0.066927 0.616459 0.016983 0.616459 0.016983 0.315210 -0.066927
1.235947e+07 0.315017 -0.068023 0.616576 0.017332 0.616576 0.017332 0.315017 -0.068023
1.253141e+07 0.315013 -0.069599 0.616618 0.017626 0.616618 0.017626 0.315013 -0.069599
1.270574e+07 0.314819 -0.070733 0.616728 0.017949 0.616728 0.017949 0.314819 -0.070733
1.288250e+07 0.315176 -0.071898 0.616691 0.018066 0.616691 0.018066 0.315176 -0.071898
1.306171e+07 0.314774 -0.072832 0.617032 0.018340 0.617032 0.018340 0.314774 -0.072832
1.324342e+07 0.314681 -0.074819 0.617186 0.018531 0.617186 0.018531 0.314681 -0.074819
1.342765e+07 0.314115 -0.075801 0.617364 0.018991 0.617364 0.018991 0.314115 -0.075801
1.361445e+07 0.313882 -0.077308 0.617487 0.019103 0.617487 0.019103 0.313882 -0.077308
1.380384e+07 0.313726 -0.077523 0.617677 0.019259 0.617677 0.019259 0.313726 -0.077523
1.399587e+07 0.313546 -0.080122 0.617839 0.019229 0.617839 0.019229 0.313546 -0.080122
1.419058e+07 0.313234 -0.080326 0.617932 0.019360 0.617932 0.019360 0.313234 -0.080326
1.438799e+07 0.312973 -0.081621 0.618098 0.019612 0.618098 0.019612 0.312973 -0.081621
1.458814e+07 0.312689 -0.082672 0.618216 0.019976 0.618216 0.019976 0.312689 -0.082672
1.479108e+07 0.312491 -0.085103 0.618280 0.019989 0.618280 0.019989 0.312491 -0.085103
1.499685e+07 0.312241 -0.085723 0.618338 0.020095 0.618338 0.020095 0.312241 -0.085723
1.520548e+07 0.312011 -0.087103 0.618477 0.020309 0.618477 0.020309 0.312011 -0.087103
1.541700e+07 0.311890 -0.088326 0.618609 0.020285 0.618609 0.020285 0.311890 -0.088326
1.563148e+07 0.311464 -0.089080 0.618481 0.020609 0.618481 0.020609 0.311464 -0.089080
1.584893e+07 0.310967 -0.090523 0.618422 0.020746 0.618422 0.020746 0.310967 -0.090523
1.606941e+07 0.310820 -0.092338 0.618237 0.021006 0.618237 0.021006 0.310820 -0.092338
1.629296e+07 0.310813 -0.092695 0.618096 0.021447 0.618096 0.021447 0.310813 -0.092695
1.651962e+07 0.310156 -0.094618 0.618062 0.021778 0.618062 0.021778 0.310156 -0.094618
1.674943e+07 0.309422 -0.095770 0.618325 0.022682 0.618325 0.022682 0.309422 -0.095770
1.698244e+07 0.309400 -0.097787 0.618510 0.022943 0.618510 0.022943 0.309400 -0.097787
1.721869e+07 0.308967 -0.099240 0.618834 0.023170 0.618834 0.023170 0.308967 -0.099240
1.745822e+07 0.308321 -0.100567 0.619105 0.023508 0.619105 0.023508 0.308321 -0.100567
1.770109e+07 0.307795 -0.100970 0.619332 0.023783 0.619332 0.023783 0.307795 -0.100970
1.794734e+07 0.307673 -0.103031 0.619511 0.024062 0.619511 0.024062 0.307673 -0.103031
1.819701e+07 0.306704 -0.104849 0.619708 0.024436 0.619708 0.024436 0.306704 -0.104849
1.845015e+07 0.306280 -0.104258 0.619990 0.024681 0.619990 0.024681 0.306280 -0.104258
1.870682e+07 0.305974 -0.106230 0.620374 0.024775 0.620374 0.024775 0.305974 -0.106230
1.896706e+07 0.305430 -0.107809 0.620589 0.024923 0.620589 0.024923 0.305430 -0.107809
1.923092e+07 0.305219 -0.108620 0.620740 0.025144 0.620740 0.025144 0.305219 -0.108620
1.949845e+07 0.304174 -0.109761 0.620912 0.025487 0.620912 0.025487 0.304174 -0.109761
1.976970e+07 0.304120 -0.110890 0.621112 0.025805 0.621112 0.025805 0.304120 -0.110890
2.004472e+07 0.303488 -0.112624 0.621415 0.026240 0.621415 0.026240 0.303488 -0.112624
2.032357e+07 0.302719 -0.113813 0.621578 0.026514 0.621578 0.026514 0.302719 -0.113813
2.060630e+07 0.302223 -0.115239 0.621723 0.026777 0.621723 0.026777 0.302223 -0.115239
2.089296e+07 0.302066 -0.117676 0.621989 0.027016 0.621989 0.027016 0.302066 -0.117676
2.118361e+07 0.301126 -0.119674 0.622263 0.027335 0.622263 0.027335 0.301126 -0.119674
2.147830e+07 0.300292 -0.120809 0.622640 0.027412 0.622640 0.027412 0.300292 -0.120809
2.177710e+07 0.300039 -0.121978 0.622719 0.027985 0.622719 0.027985 0.300039 -0.121978
2.208005e+07 0.299290 -0.124043 0.623117 0.028054 0.623117 0.028054 0.299290 -0.124043
2.238721e+07 0.298701 -0.125500 0.623412 0.028364 0.623412 0.028364 0.298701 -0.125500
2.269865e+07 0.297774 -0.127834 0.623657 0.028828 0.623657 0.028828 0.297774 -0.127834
2.301442e+07 0.297192 -0.129402 0.623877 0.029080 0.623877 0.029080 0.297192 -0.129402
2.333458e+07 0.296318 -0.131191 0.624122 0.029386 0.624122 0.029386 0.296318 -0.131191
2.365920e+07 0.295675 -0.132603 0.624351 0.029692 0.624351 0.029692 0.295675 -0.132603
