! Touchstone file generated by LibreVNA.py
# Hz S RI R 50
! Freq ReS11 ImS11 ReS21 ImS21 ReS12 ImS12 ReS22 ImS22
1.000000e+06 -0.002138 0.009103 0.992544 -0.002952 1.002513 -0.007090 -0.006864 0.011233
2.998000e+06 0.001567 0.022244 0.998302 -0.017922 1.003007 -0.020818 0.000768 0.027689
4.996000e+06 0.003717 0.034559 1.001080 -0.037941 1.003357 -0.038882 0.005374 0.038199
6.994000e+06 0.005773 0.046494 1.000863 -0.058080 1.001883 -0.057959 0.008610 0.049143
8.992000e+06 0.008139 0.057946 0.999028 -0.078398 1.000096 -0.077309 0.011672 0.059720
1.099000e+07 0.010705 0.068883 0.996153 -0.098661 0.996891 -0.097170 0.014861 0.069952
1.298800e+07 0.013816 0.079065 0.992386 -0.119010 0.992864 -0.116733 0.018611 0.079525
1.498600e+07 0.017436 0.090719 0.988918 -0.137316 0.989611 -0.135276 0.023304 0.090782
1.698400e+07 0.021075 0.102388 0.984864 -0.155721 0.985468 -0.153217 0.028241 0.102055
1.898200e+07 0.025024 0.114010 0.980126 -0.173624 0.980968 -0.171199 0.033309 0.113084
2.098000e+07 0.029235 0.125362 0.974785 -0.191329 0.975753 -0.188876 0.038777 0.123749
2.297800e+07 0.033580 0.136206 0.969073 -0.209057 0.970148 -0.206474 0.044466 0.133870
2.497600e+07 0.038148 0.146693 0.962571 -0.226624 0.964103 -0.223586 0.050401 0.143389
2.697400e+07 0.043174 0.159101 0.955762 -0.245963 0.957718 -0.242360 0.056504 0.155725
2.897200e+07 0.049157 0.169705 0.949284 -0.262183 0.951074 -0.258569 0.064610 0.165141
3.097000e+07 0.055563 0.179467 0.941470 -0.278061 0.943523 -0.275272 0.073435 0.173628
3.296800e+07 0.061805 0.190087 0.933772 -0.294973 0.935842 -0.292164 0.081398 0.183119
3.496600e+07 0.067365 0.199869 0.924875 -0.311739 0.927549 -0.308622 0.088148 0.191590
3.696400e+07 0.073615 0.209377 0.916006 -0.327670 0.919031 -0.324373 0.095916 0.199629
3.896200e+07 0.081019 0.220258 0.906841 -0.343063 0.910031 -0.339626 0.105696 0.209546
4.096000e+07 0.088676 0.230540 0.897420 -0.358218 0.900690 -0.354978 0.115865 0.218570
4.295800e+07 0.096477 0.240167 0.887442 -0.373053 0.890961 -0.369857 0.126069 0.226636
4.495600e+07 0.104363 0.249094 0.877076 -0.387691 0.881034 -0.384315 0.136333 0.233591
4.695400e+07 0.112621 0.257414 0.867247 -0.401536 0.870735 -0.398539 0.146915 0.239761
4.895200e+07 0.120884 0.265254 0.856730 -0.415176 0.860451 -0.412472 0.157398 0.245290
5.095000e+07 0.130345 0.274391 0.845855 -0.428674 0.849353 -0.426003 0.169899 0.252270
5.294800e+07 0.139991 0.283079 0.834498 -0.441312 0.838475 -0.438815 0.182451 0.258765
5.494600e+07 0.149548 0.291296 0.822882 -0.454076 0.826852 -0.451318 0.194718 0.264455
5.694400e+07 0.159106 0.299042 0.810872 -0.466703 0.815079 -0.464161 0.206663 0.269297
5.894200e+07 0.168776 0.305587 0.798915 -0.478094 0.803244 -0.475901 0.218625 0.272530
6.094000e+07 0.178701 0.309832 0.786542 -0.488174 0.790554 -0.486220 0.230826 0.272713
6.293800e+07 0.190149 0.317820 0.772876 -0.500804 0.777253 -0.498927 0.244935 0.277941
6.493600e+07 0.201453 0.324796 0.761188 -0.511048 0.765321 -0.509193 0.259280 0.281736
6.693400e+07 0.212118 0.330540 0.748110 -0.520804 0.752180 -0.519180 0.272517 0.284001
6.893200e+07 0.222532 0.335499 0.734840 -0.530022 0.739172 -0.528845 0.285123 0.285270
7.093000e+07 0.232756 0.339800 0.721687 -0.539299 0.725813 -0.538049 0.297091 0.285494
7.292800e+07 0.242817 0.343429 0.708307 -0.548113 0.712216 -0.546968 0.308613 0.284662
7.492600e+07 0.254596 0.348907 0.695063 -0.556241 0.699072 -0.555646 0.323215 0.286597
7.692400e+07 0.266323 0.353866 0.681717 -0.564192 0.685660 -0.563942 0.337601 0.287558
7.892200e+07 0.277803 0.358087 0.668078 -0.572040 0.671804 -0.571715 0.351338 0.287535
8.092000e+07 0.289066 0.361425 0.654279 -0.579312 0.658126 -0.578933 0.364371 0.286308
8.291800e+07 0.300037 0.363771 0.640740 -0.586095 0.644320 -0.586180 0.376637 0.283725
8.491600e+07 0.310829 0.365212 0.626920 -0.592636 0.630136 -0.592479 0.388266 0.279990
8.691400e+07 0.323336 0.369073 0.613267 -0.598631 0.616608 -0.599023 0.403553 0.279088
8.891200e+07 0.335636 0.372311 0.599562 -0.604223 0.602844 -0.604813 0.418293 0.277406
9.091000e+07 0.347564 0.374546 0.585857 -0.609536 0.589021 -0.610413 0.432129 0.274468
9.290800e+07 0.359129 0.375727 0.572050 -0.614425 0.575158 -0.615303 0.444780 0.270463
9.490600e+07 0.370239 0.376003 0.558370 -0.619071 0.561119 -0.619904 0.456315 0.265313
9.690400e+07 0.380953 0.375457 0.544761 -0.623437 0.547106 -0.624112 0.467037 0.259099
9.890200e+07 0.393850 0.377553 0.531033 -0.627603 0.533198 -0.628530 0.482312 0.255407
1.009000e+08 0.406474 0.379036 0.517373 -0.631139 0.519595 -0.632034 0.496766 0.250966
1.028980e+08 0.418447 0.379466 0.503776 -0.634330 0.505958 -0.635262 0.509927 0.245627
1.048960e+08 0.429783 0.378821 0.490417 -0.637321 0.492328 -0.638206 0.521276 0.239925
1.068940e+08 0.440595 0.377042 0.476983 -0.639794 0.478828 -0.640520 0.531693 0.232162
1.088920e+08 0.450874 0.374346 0.463719 -0.642138 0.465352 -0.642434 0.540966 0.223393
1.108900e+08 0.463797 0.374458 0.450507 -0.643765 0.452017 -0.644538 0.555452 0.217084
1.128880e+08 0.476492 0.374290 0.437159 -0.645460 0.438595 -0.646564 0.569349 0.210624
1.148860e+08 0.488273 0.373008 0.424135 -0.646802 0.425501 -0.647928 0.581365 0.203297
1.168840e+08 0.499180 0.370731 0.411344 -0.647790 0.412411 -0.648800 0.591850 0.194810
1.188820e+08 0.509313 0.367130 0.398651 -0.648630 0.399382 -0.649137 0.600565 0.185076
1.208800e+08 0.518862 0.362669 0.385964 -0.649260 0.386519 -0.649529 0.607945 0.174470
1.228780e+08 0.531665 0.361195 0.373576 -0.649411 0.373785 -0.649804 0.621437 0.165957
1.248760e+08 0.543955 0.359260 0.361053 -0.649311 0.361333 -0.649990 0.634064 0.157254
1.268740e+08 0.555399 0.356253 0.348834 -0.649018 0.348737 -0.649354 0.644836 0.147153
1.288720e+08 0.565509 0.352363 0.336442 -0.648562 0.336457 -0.648663 0.653493 0.137253
1.308700e+08 0.574682 0.347402 0.324414 -0.647899 0.324450 -0.647642 0.660180 0.126247
1.328680e+08 0.583055 0.341641 0.312716 -0.647117 0.312689 -0.646378 0.665488 0.114450
1.348660e+08 0.595527 0.338475 0.300997 -0.646145 0.300593 -0.645098 0.677551 0.103812
1.368640e+08 0.607329 0.334985 0.289448 -0.644562 0.289008 -0.643576 0.688759 0.093096
1.388620e+08 0.617984 0.330661 0.277948 -0.642926 0.277533 -0.641813 0.697746 0.082142
1.408600e+08 0.627211 0.325520 0.266585 -0.641116 0.266385 -0.639831 0.704594 0.070867
1.428580e+08 0.635232 0.319439 0.255370 -0.639410 0.255172 -0.637755 0.709175 0.059126
1.448560e+08 0.642428 0.312473 0.244225 -0.637354 0.244288 -0.635399 0.712288 0.046640
1.468540e+08 0.654214 0.308019 0.233447 -0.634878 0.233298 -0.632797 0.722745 0.034546
1.488520e+08 0.665368 0.303274 0.222742 -0.632349 0.222515 -0.630139 0.732376 0.022604
1.508500e+08 0.675149 0.297822 0.212388 -0.629396 0.212243 -0.627166 0.739719 0.010510
1.528480e+08 0.683477 0.291645 0.202016 -0.626651 0.202080 -0.623994 0.744753 -0.001723
1.548460e+08 0.690332 0.284641 0.191713 -0.623758 0.192109 -0.620885 0.747500 -0.014045
1.568440e+08 0.696202 0.276883 0.181223 -0.620794 0.182134 -0.617792 0.748451 -0.026799
1.588420e+08 0.707224 0.270905 0.171252 -0.617391 0.172305 -0.614244 0.756895 -0.041099
1.608400e+08 0.717629 0.264811 0.161280 -0.613935 0.162397 -0.610625 0.764705 -0.054184
1.628380e+08 0.726536 0.258139 0.151383 -0.610415 0.152814 -0.606991 0.770119 -0.067110
1.648360e+08 0.733840 0.250828 0.141457 -0.606844 0.143604 -0.603131 0.773230 -0.079911
1.668340e+08 0.739563 0.242894 0.131615 -0.603013 0.134419 -0.599207 0.773875 -0.092582
1.688320e+08 0.744310 0.234153 0.121515 -0.599021 0.125318 -0.595323 0.772852 -0.105423
1.708300e+08 0.754274 0.226759 0.112261 -0.594789 0.116121 -0.591042 0.779116 -0.120210
1.728280e+08 0.763748 0.219433 0.103026 -0.590698 0.106957 -0.586687 0.784831 -0.134625
1.748260e+08 0.771571 0.211919 0.093744 -0.586259 0.098248 -0.582435 0.788249 -0.148338
1.768240e+08 0.777674 0.203941 0.084657 -0.581745 0.089504 -0.577866 0.789444 -0.161460
1.788220e+08 0.782226 0.195537 0.075479 -0.576925 0.081070 -0.573418 0.788312 -0.174102
1.808200e+08 0.785524 0.186680 0.066504 -0.571993 0.072578 -0.568877 0.785410 -0.186482
1.828180e+08 0.794082 0.178693 0.057841 -0.567034 0.064276 -0.563799 0.789667 -0.200939
1.848160e+08 0.802509 0.171034 0.049712 -0.561775 0.056248 -0.558501 0.793622 -0.215187
1.868140e+08 0.809371 0.162878 0.041739 -0.556522 0.048718 -0.553482 0.795378 -0.228913
1.888120e+08 0.814601 0.154367 0.033682 -0.551072 0.041180 -0.548555 0.794964 -0.241878
1.908100e+08 0.818068 0.145477 0.025775 -0.545492 0.033666 -0.543650 0.792125 -0.254308
1.928080e+08 0.820389 0.136299 0.017938 -0.539771 0.026377 -0.538502 0.787715 -0.266343
1.948060e+08 0.828020 0.127341 0.010559 -0.534172 0.019077 -0.533057 0.789925 -0.281628
1.968040e+08 0.835338 0.118574 0.003217 -0.528379 0.012252 -0.527414 0.791881 -0.296299
1.988020e+08 0.840891 0.110017 -0.003840 -0.522478 0.005255 -0.521896 0.791785 -0.309900
2.008000e+08 0.844891 0.101417 -0.010717 -0.516428 -0.001485 -0.516141 0.789808 -0.322164
2.027980e+08 0.847153 0.092753 -0.017768 -0.510089 -0.008157 -0.510629 0.785666 -0.333418
2.047960e+08 0.848317 0.083825 -0.024231 -0.503704 -0.014655 -0.504858 0.780169 -0.344044
2.067940e+08 0.854653 0.074754 -0.030561 -0.497392 -0.020765 -0.498716 0.780907 -0.358163
2.087920e+08 0.860806 0.065542 -0.036530 -0.491108 -0.026721 -0.492639 0.781568 -0.371938
2.107900e+08 0.865447 0.056437 -0.042498 -0.484685 -0.032468 -0.486580 0.780035 -0.385019
2.127880e+08 0.868370 0.047726 -0.048288 -0.478161 -0.038205 -0.480571 0.776840 -0.396625
2.147860e+08 0.869692 0.039201 -0.053804 -0.471332 -0.043667 -0.474443 0.771591 -0.407123
2.167840e+08 0.870024 0.030547 -0.058984 -0.464537 -0.049049 -0.468375 0.765037 -0.417040
2.187820e+08 0.875355 0.021327 -0.064075 -0.457903 -0.054052 -0.461920 0.764325 -0.430802
2.207800e+08 0.880537 0.012041 -0.068922 -0.451360 -0.059009 -0.455664 0.763451 -0.444428
2.227780e+08 0.884290 0.002925 -0.073561 -0.444800 -0.063697 -0.449433 0.760868 -0.456808
2.247760e+08 0.886498 -0.005943 -0.077987 -0.438049 -0.068284 -0.443184 0.756474 -0.467968
2.267740e+08 0.887057 -0.014426 -0.082232 -0.431295 -0.072808 -0.436853 0.750240 -0.477893
2.287720e+08 0.886659 -0.022792 -0.086298 -0.424506 -0.077116 -0.430504 0.742845 -0.487121
2.307700e+08 0.890789 -0.032103 -0.090233 -0.417814 -0.081087 -0.424096 0.740932 -0.500355
2.327680e+08 0.894896 -0.041235 -0.093994 -0.411177 -0.084832 -0.417706 0.738916 -0.513337
2.347660e+08 0.897647 -0.050160 -0.097492 -0.404581 -0.088603 -0.411322 0.735226 -0.525092
2.367640e+08 0.898963 -0.058885 -0.100769 -0.397909 -0.092164 -0.405019 0.729820 -0.535581
2.387620e+08 0.898761 -0.067607 -0.103903 -0.391188 -0.095746 -0.398648 0.722644 -0.544711
2.407600e+08 0.897765 -0.076056 -0.106786 -0.384520 -0.099106 -0.392300 0.714202 -0.553289
2.427580e+08 0.901207 -0.085249 -0.109581 -0.377971 -0.102049 -0.385967 0.711352 -0.566067
2.447560e+08 0.904554 -0.094221 -0.112313 -0.371538 -0.104909 -0.379781 0.708578 -0.578548
2.467540e+08 0.906614 -0.102967 -0.114758 -0.365075 -0.107471 -0.373444 0.704124 -0.589478
2.487520e+08 0.907207 -0.111522 -0.116977 -0.358605 -0.110099 -0.367083 0.698025 -0.598917
2.507500e+08 0.906406 -0.120011 -0.119087 -0.352198 -0.112598 -0.360830 0.690203 -0.606912
2.527480e+08 0.904727 -0.128563 -0.120928 -0.345769 -0.114993 -0.354608 0.681147 -0.614324
2.547460e+08 0.907449 -0.137575 -0.122747 -0.339540 -0.117137 -0.348423 0.677417 -0.626300
2.567440e+08 0.910034 -0.146469 -0.124454 -0.333300 -0.118967 -0.342399 0.673794 -0.638233
2.587420e+08 0.911262 -0.155070 -0.125992 -0.327143 -0.120751 -0.336257 0.668620 -0.648450
2.607400e+08 0.911151 -0.163300 -0.127437 -0.320945 -0.122487 -0.330187 0.661916 -0.657037
2.627380e+08 0.909562 -0.171471 -0.128768 -0.314820 -0.124198 -0.323990 0.653328 -0.664219
2.647360e+08 0.907060 -0.179580 -0.129793 -0.308832 -0.125803 -0.317983 0.643742 -0.670602
2.667340e+08 0.909078 -0.188380 -0.130866 -0.302918 -0.126905 -0.312287 0.639467 -0.681911
2.687320e+08 0.911200 -0.196959 -0.131738 -0.297159 -0.128049 -0.306490 0.635570 -0.692853
2.707300e+08 0.911890 -0.205351 -0.132421 -0.291478 -0.129084 -0.300771 0.630194 -0.702134
2.727280e+08 0.911286 -0.213285 -0.133229 -0.285678 -0.130343 -0.294892 0.621402 -0.711027
2.747260e+08 0.909260 -0.221195 -0.133685 -0.280096 -0.131195 -0.289145 0.612528 -0.717196
2.767240e+08 0.906351 -0.229026 -0.134124 -0.274511 -0.132099 -0.283444 0.602523 -0.722541
2.787220e+08 0.907779 -0.237584 -0.134482 -0.269102 -0.132580 -0.278037 0.597969 -0.732943
2.807200e+08 0.909238 -0.245998 -0.134791 -0.263759 -0.133024 -0.272723 0.593634 -0.743150
2.827180e+08 0.909299 -0.254101 -0.134968 -0.258356 -0.133366 -0.267326 0.587496 -0.751901
2.847160e+08 0.908000 -0.261802 -0.135011 -0.253067 -0.133824 -0.261824 0.579583 -0.758976
2.867140e+08 0.905327 -0.269303 -0.135094 -0.247852 -0.134102 -0.256395 0.569839 -0.764398
2.887120e+08 0.901757 -0.276657 -0.135005 -0.242699 -0.134328 -0.251029 0.559091 -0.769015
2.907100e+08 0.902845 -0.284842 -0.134871 -0.237754 -0.134355 -0.246064 0.553574 -0.779334
2.927080e+08 0.904095 -0.292884 -0.134763 -0.232873 -0.134318 -0.241179 0.548538 -0.789396
2.947060e+08 0.903984 -0.300463 -0.134425 -0.228025 -0.134241 -0.236197 0.541948 -0.797469
2.967040e+08 0.902280 -0.308014 -0.134129 -0.223261 -0.134132 -0.231182 0.533552 -0.803844
2.987020e+08 0.899166 -0.315328 -0.133653 -0.218567 -0.133922 -0.226161 0.523907 -0.807914
3.007000e+08 0.895185 -0.322515 -0.133123 -0.213873 -0.133712 -0.221206 0.513018 -0.811180
3.026980e+08 0.895927 -0.330731 -0.132647 -0.209408 -0.133338 -0.216686 0.507062 -0.820820
3.046960e+08 0.896849 -0.338614 -0.132105 -0.204926 -0.132854 -0.212161 0.501675 -0.830304
3.066940e+08 0.896360 -0.345931 -0.131459 -0.200583 -0.132429 -0.207614 0.494914 -0.837624
3.086920e+08 0.894297 -0.353028 -0.130754 -0.196286 -0.131846 -0.203031 0.486754 -0.842811
3.106900e+08 0.890605 -0.360038 -0.130009 -0.192034 -0.131251 -0.198457 0.476946 -0.846059
3.126880e+08 0.885994 -0.366878 -0.129168 -0.187785 -0.130511 -0.193920 0.465852 -0.848218
3.146860e+08 0.885435 -0.376607 -0.128409 -0.183676 -0.130006 -0.189682 0.459249 -0.857130
3.166840e+08 0.885887 -0.384477 -0.127478 -0.179701 -0.129250 -0.185551 0.453373 -0.866072
3.186820e+08 0.884975 -0.391501 -0.126597 -0.175756 -0.128392 -0.181402 0.446331 -0.872721
3.206800e+08 0.882537 -0.398121 -0.125615 -0.171894 -0.127538 -0.177313 0.437939 -0.877144
3.226780e+08 0.878650 -0.404331 -0.124617 -0.168058 -0.126543 -0.173136 0.428266 -0.879309
3.246760e+08 0.873763 -0.410429 -0.123526 -0.164282 -0.125524 -0.169031 0.417432 -0.880439
3.266740e+08 0.873621 -0.418256 -0.122550 -0.160673 -0.124687 -0.165207 0.410083 -0.888887
3.286720e+08 0.873877 -0.425821 -0.121440 -0.157056 -0.123701 -0.161525 0.403618 -0.897389
3.306700e+08 0.872542 -0.432965 -0.120341 -0.153539 -0.122599 -0.157801 0.396272 -0.903423
3.326680e+08 0.869553 -0.439784 -0.119258 -0.150094 -0.121526 -0.154100 0.387993 -0.907205
3.346660e+08 0.865047 -0.446303 -0.118051 -0.146686 -0.120308 -0.150362 0.377874 -0.908911
3.366640e+08 0.859722 -0.452434 -0.116886 -0.143366 -0.119109 -0.146694 0.366769 -0.909352
3.386620e+08 0.859332 -0.460093 -0.115739 -0.140110 -0.117974 -0.143318 0.359378 -0.917083
3.406600e+08 0.859237 -0.467826 -0.114551 -0.136871 -0.116845 -0.139913 0.352646 -0.925068
3.426580e+08 0.857686 -0.475017 -0.113400 -0.133748 -0.115670 -0.136556 0.344880 -0.930626
3.446560e+08 0.854428 -0.481493 -0.112124 -0.130608 -0.114334 -0.133231 0.336093 -0.933674
3.466540e+08 0.849650 -0.487404 -0.110812 -0.127537 -0.112950 -0.129884 0.326042 -0.934353
3.486520e+08 0.843768 -0.493037 -0.109570 -0.124572 -0.111555 -0.126604 0.315207 -0.933637
3.506500e+08 0.843151 -0.500968 -0.108330 -0.121608 -0.110334 -0.123510 0.307365 -0.940774
3.526480e+08 0.842714 -0.508681 -0.107022 -0.118742 -0.109057 -0.120436 0.300098 -0.948375
3.546460e+08 0.840700 -0.515591 -0.105747 -0.115921 -0.107784 -0.117362 0.292314 -0.953278
3.566440e+08 0.837247 -0.522007 -0.104446 -0.113158 -0.106364 -0.114465 0.283464 -0.955685
3.586420e+08 0.832055 -0.527440 -0.103114 -0.110425 -0.104859 -0.111485 0.273777 -0.955549
3.606400e+08 0.826047 -0.532468 -0.101782 -0.107801 -0.103355 -0.108572 0.263316 -0.953909
3.626380e+08 0.825007 -0.540128 -0.100456 -0.105189 -0.101998 -0.105823 0.255314 -0.960616
3.646360e+08 0.824214 -0.547670 -0.099170 -0.102529 -0.100632 -0.103117 0.247888 -0.967689
3.666340e+08 0.822152 -0.554329 -0.097809 -0.100002 -0.099251 -0.100408 0.239779 -0.972133
3.686320e+08 0.818247 -0.560211 -0.096457 -0.097499 -0.097710 -0.097801 0.231153 -0.973870
3.706300e+08 0.812858 -0.565608 -0.095122 -0.095067 -0.096223 -0.095247 0.221795 -0.973048
3.726280e+08 0.806244 -0.570472 -0.093787 -0.092693 -0.094709 -0.092741 0.211871 -0.970477
3.746260e+08 0.804880 -0.577903 -0.092448 -0.090296 -0.093211 -0.090200 0.203436 -0.976188
3.766240e+08 0.804001 -0.585513 -0.091007 -0.088047 -0.091756 -0.087793 0.195052 -0.982851
3.786220e+08 0.801348 -0.592123 -0.089706 -0.085667 -0.090287 -0.085428 0.188205 -0.986293
3.806200e+08 0.796916 -0.598043 -0.088291 -0.083513 -0.088764 -0.083065 0.179542 -0.987324
3.826180e+08 0.791206 -0.602624 -0.086921 -0.081290 -0.087252 -0.080809 0.170218 -0.985838
3.846160e+08 0.784612 -0.606772 -0.085597 -0.079106 -0.085718 -0.078596 0.160402 -0.982692
3.866140e+08 0.782605 -0.614263 -0.084257 -0.076945 -0.084223 -0.076348 0.151886 -0.987735
3.886120e+08 0.781319 -0.621703 -0.082897 -0.074827 -0.082797 -0.074176 0.144007 -0.993572
3.906100e+08 0.778592 -0.628108 -0.081560 -0.072693 -0.081351 -0.072032 0.135871 -0.996785
3.926080e+08 0.774367 -0.633316 -0.080191 -0.070631 -0.079861 -0.069943 0.127542 -0.997389
3.946060e+08 0.768676 -0.637669 -0.078834 -0.068644 -0.078347 -0.067951 0.118663 -0.995402
3.966040e+08 0.761770 -0.641418 -0.077468 -0.066659 -0.076819 -0.066019 0.109325 -0.991786
3.986020e+08 0.759472 -0.648864 -0.076083 -0.064681 -0.075315 -0.064037 0.100760 -0.996323
4.006000e+08 0.758024 -0.656057 -0.074435 -0.062529 -0.073790 -0.061957 0.092935 -1.001533
4.025980e+08 0.754780 -0.662383 -0.073306 -0.060831 -0.072381 -0.060110 0.085228 -1.003893
4.045960e+08 0.750290 -0.667511 -0.071899 -0.058958 -0.070875 -0.058276 0.077663 -1.003880
4.065940e+08 0.744402 -0.671608 -0.070528 -0.057095 -0.069414 -0.056474 0.069185 -1.001347
4.085920e+08 0.737124 -0.675097 -0.069157 -0.055228 -0.067909 -0.054697 0.060004 -0.997174
4.105900e+08 0.734301 -0.682412 -0.067741 -0.053427 -0.066436 -0.052897 0.051479 -1.001210
4.125880e+08 0.732048 -0.689731 -0.066312 -0.051630 -0.064917 -0.051182 0.043352 -1.005940
4.145860e+08 0.728512 -0.695872 -0.064860 -0.049896 -0.063447 -0.049472 0.035578 -1.008017
4.165840e+08 0.723765 -0.700622 -0.063441 -0.048163 -0.061947 -0.047831 0.027851 -1.007560
4.185820e+08 0.717580 -0.704398 -0.062011 -0.046513 -0.060483 -0.046250 0.019497 -1.004640
4.205800e+08 0.710379 -0.707432 -0.060610 -0.044849 -0.059005 -0.044687 0.011058 -0.999752
4.225780e+08 0.707434 -0.714412 -0.059163 -0.043194 -0.057505 -0.043099 0.002695 -1.003387
4.245760e+08 0.705054 -0.721548 -0.057724 -0.041585 -0.055997 -0.041513 -0.005513 -1.007717
4.265740e+08 0.701415 -0.727337 -0.056272 -0.040011 -0.054539 -0.040016 -0.013238 -1.009643
4.285720e+08 0.696436 -0.731861 -0.054807 -0.038472 -0.053053 -0.038537 -0.020619 -1.008820
4.305700e+08 0.690220 -0.735103 -0.053332 -0.036926 -0.051631 -0.037090 -0.028073 -1.005440
4.325680e+08 0.682871 -0.737559 -0.051887 -0.035419 -0.050165 -0.035675 -0.035952 -1.000073
4.345660e+08 0.679310 -0.744390 -0.050391 -0.033896 -0.048698 -0.034268 -0.044324 -1.003157
4.365640e+08 0.676413 -0.751484 -0.048886 -0.032456 -0.047215 -0.032886 -0.052209 -1.007057
4.385620e+08 0.672378 -0.757116 -0.047377 -0.031079 -0.045745 -0.031513 -0.059784 -1.008533
4.405600e+08 0.667379 -0.761183 -0.045860 -0.029679 -0.044275 -0.030179 -0.067604 -1.007410
4.425580e+08 0.661187 -0.763909 -0.044365 -0.028265 -0.042823 -0.028885 -0.074247 -1.003697
