! Mini-Circuits								
! S2P DATA File Format								
! Type: Bandpass Filter								
! Model:ABF-3R3G+								
! All S Parameters are in dB deg format								
! TEST CONDITIONS: INPUT POWER = 0 dBm @ Temperature = +25 deg C							
# MHz S DB R 50								
!Frequency          S11 dB    S11 DEG     S21 dB    S21 DEG     S12 dB    S12 DEG     S22 dB    S22 DEG								
10	-0.096	178.511	-97.86	68.448	-98.033	52.125	-0.099	178.514
20	-0.109	177.207	-94.534	69.73	-95.216	67.279	-0.113	177.246
30	-0.131	175.968	-90.733	71.129	-91.671	71.912	-0.123	176.007
40	-0.144	174.798	-88.124	81.354	-88.807	74.163	-0.134	174.807
50	-0.133	173.516	-87.346	72.789	-87.87	88.582	-0.134	173.56
60	-0.144	172.328	-86.261	82.32	-86.098	82.23	-0.139	172.361
70	-0.161	171.116	-85.066	81.55	-84.52	79.333	-0.149	171.18
80	-0.152	169.909	-84.138	85.382	-84.424	81.29	-0.155	169.982
90	-0.152	168.713	-82.954	85.002	-82.811	78.115	-0.157	168.733
100	-0.066	167.197	-81.871	81.8	-81.623	80.844	-0.077	167.287
110	-0.082	165.987	-81.06	79.388	-80.751	80.651	-0.089	166.056
120	-0.098	164.803	-80.185	79.999	-79.913	80.771	-0.108	164.876
130	-0.118	163.616	-79.59	80.502	-79.13	79.839	-0.123	163.686
140	-0.151	162.518	-78.784	80.644	-78.57	79.195	-0.135	162.459
150	-0.156	161.283	-78.333	78.913	-77.838	78.76	-0.151	161.316
160	-0.16	160.053	-77.668	79.025	-77.262	79.362	-0.163	160.09
170	-0.169	158.901	-77.202	78.421	-76.757	78.203	-0.177	158.83
180	-0.177	157.701	-76.746	78.257	-76.465	78.481	-0.183	157.679
190	-0.18	156.481	-76.178	78.22	-75.863	77.518	-0.184	156.5
200	-0.183	155.29	-75.753	77.029	-75.524	77.898	-0.184	155.282
210	-0.181	154.1	-75.216	77.582	-75.049	76.86	-0.186	154.103
220	-0.186	152.863	-74.944	76.593	-74.644	76.166	-0.186	152.846
230	-0.196	151.676	-74.478	76.589	-74.243	75.921	-0.193	151.653
240	-0.2	150.496	-74.14	75.758	-73.954	75.063	-0.2	150.434
250	-0.209	149.251	-73.742	75.288	-73.478	74.731	-0.205	149.25
260	-0.209	148.078	-73.519	74.178	-73.041	73.737	-0.215	148.08
270	-0.217	146.862	-73.228	73.892	-72.8	73.464	-0.219	146.819
280	-0.218	145.689	-72.809	73.577	-72.395	73.641	-0.224	145.612
290	-0.225	144.467	-72.533	72.585	-72.094	73.301	-0.226	144.448
300	-0.225	143.26	-72.428	71.845	-71.795	73.186	-0.229	143.299
310	-0.23	142.081	-71.989	71.86	-71.521	73.115	-0.224	142.028
320	-0.233	140.88	-71.691	71.614	-71.278	72.826	-0.229	140.806
330	-0.237	139.689	-71.325	71.131	-71.151	72.671	-0.238	139.616
340	-0.245	138.481	-71.119	70.587	-70.806	71.678	-0.242	138.416
350	-0.248	137.27	-70.735	70.499	-70.526	70.755	-0.245	137.192
360	-0.258	136.1	-70.439	69.883	-70.285	70.073	-0.249	136.001
370	-0.255	134.88	-70.268	69.656	-70.049	69.484	-0.251	134.757
380	-0.262	133.683	-70.068	68.694	-70.149	69.886	-0.251	133.577
390	-0.258	132.48	-69.862	68.089	-69.938	68.93	-0.254	132.374
400	-0.262	131.281	-69.629	67.725	-69.617	68.224	-0.255	131.168
410	-0.259	130.062	-69.374	67.109	-69.398	67.445	-0.262	129.954
420	-0.265	128.843	-69.017	66.801	-68.964	66.407	-0.266	128.765
430	-0.268	127.651	-68.894	66.19	-68.689	65.568	-0.267	127.556
440	-0.271	126.449	-68.74	64.914	-68.442	65.65	-0.271	126.322
450	-0.275	125.248	-68.449	65.096	-68.038	64.857	-0.274	125.15
460	-0.274	124.056	-68.286	64.606	-67.881	64.838	-0.278	123.909
470	-0.276	122.861	-68.119	63.748	-67.781	64.697	-0.276	122.708
480	-0.281	121.632	-67.83	63.902	-67.448	64.462	-0.277	121.509
490	-0.288	120.475	-67.633	63.299	-67.468	64.246	-0.279	120.293
500	-0.286	119.249	-67.522	62.241	-67.243	63.665	-0.28	119.134
510	-0.292	118.074	-67.266	62.252	-67.061	63.14	-0.28	117.896
520	-0.289	116.846	-66.988	62.404	-66.982	62.714	-0.286	116.682
530	-0.291	115.68	-66.845	61.739	-66.872	61.959	-0.286	115.454
540	-0.296	114.427	-66.643	61.106	-66.644	61.045	-0.285	114.275
550	-0.297	113.264	-66.46	60.258	-66.461	60.366	-0.292	113.074
560	-0.305	112.045	-66.279	59.806	-66.258	59.244	-0.293	111.879
570	-0.304	110.835	-66.158	59.35	-66.079	58.755	-0.3	110.639
580	-0.306	109.588	-66.072	58.542	-65.927	58.577	-0.302	109.413
590	-0.306	108.417	-65.818	58.593	-65.628	58.118	-0.3	108.203
600	-0.305	107.162	-65.78	57.392	-65.552	58.018	-0.304	106.988
610	-0.301	105.976	-65.495	57.985	-65.281	57.314	-0.308	105.784
620	-0.305	104.741	-65.479	56.543	-65.279	57.6	-0.306	104.578
630	-0.304	103.58	-65.098	57.239	-64.938	56.837	-0.303	103.349
640	-0.306	102.344	-65.072	55.697	-65.003	56.839	-0.304	102.167
650	-0.308	101.119	-64.787	56.428	-64.664	56.111	-0.305	100.987
660	-0.304	99.947	-64.778	54.66	-64.681	56.097	-0.307	99.762
670	-0.311	98.772	-64.428	55.048	-64.407	54.702	-0.304	98.518
680	-0.309	97.587	-64.431	53.67	-64.373	55.024	-0.31	97.326
690	-0.314	96.402	-64.171	53.949	-64.129	53.622	-0.312	96.106
700	-0.314	95.12	-64.133	52.276	-64.089	53.569	-0.313	94.915
710	-0.319	93.915	-63.824	52.497	-63.849	52.213	-0.311	93.666
720	-0.317	92.674	-63.863	51.067	-63.81	51.744	-0.314	92.415
730	-0.32	91.435	-63.563	51.265	-63.563	50.675	-0.31	91.206
740	-0.322	90.199	-63.463	50.071	-63.48	50.433	-0.311	90.01
750	-0.312	89.06	-63.36	49.951	-63.333	49.577	-0.312	88.768
760	-0.311	87.792	-63.217	49.581	-63.196	49.142	-0.314	87.563
770	-0.313	86.591	-63.107	49.181	-63.05	48.836	-0.308	86.359
780	-0.307	85.394	-62.976	48.792	-62.947	48.58	-0.318	85.135
790	-0.313	84.21	-62.844	48.617	-62.744	48.291	-0.312	83.945
800	-0.312	82.992	-62.699	47.959	-62.586	48.046	-0.316	82.724
810	-0.316	81.74	-62.515	47.528	-62.43	47.504	-0.315	81.521
820	-0.306	80.532	-62.398	46.906	-62.297	46.811	-0.319	80.304
830	-0.319	79.317	-62.238	46.274	-62.186	46.277	-0.32	79.074
840	-0.318	78.054	-62.132	45.601	-62.064	45.73	-0.32	77.815
850	-0.315	76.825	-61.983	44.679	-61.938	44.899	-0.32	76.556
860	-0.315	75.63	-61.835	44.279	-61.815	44.346	-0.318	75.279
870	-0.314	74.403	-61.703	43.684	-61.652	43.804	-0.317	74.068
880	-0.318	73.126	-61.569	43.029	-61.552	43.3	-0.314	72.809
890	-0.313	71.923	-61.457	42.465	-61.395	42.887	-0.309	71.589
900	-0.316	70.713	-61.339	41.988	-61.262	42.244	-0.308	70.354
910	-0.32	69.503	-61.195	41.707	-61.11	41.905	-0.305	69.177
920	-0.318	68.263	-61.059	41.268	-61.022	41.288	-0.303	67.932
930	-0.319	67.046	-60.949	40.431	-60.904	40.829	-0.306	66.728
940	-0.317	65.813	-60.799	40.157	-60.716	40.163	-0.306	65.523
950	-0.312	64.587	-60.678	39.806	-60.617	39.406	-0.312	64.277
960	-0.317	63.336	-60.623	38.615	-60.582	39.438	-0.315	63.041
970	-0.315	62.09	-60.454	37.874	-60.415	38.801	-0.316	61.777
980	-0.314	60.804	-60.235	38.614	-60.22	37.092	-0.317	60.544
990	-0.313	59.596	-60.218	36.616	-60.174	37.656	-0.315	59.281
1000	-0.308	58.372	-60.163	35.645	-60.107	37.332	-0.315	58.064
1010	-0.307	57.068	-59.85	37.352	-59.812	35.315	-0.311	56.787
1020	-0.306	55.867	-59.697	35.484	-59.751	35.811	-0.306	55.504
1030	-0.305	54.603	-59.748	33.908	-59.708	36.198	-0.308	54.233
1040	-0.301	53.414	-59.522	35.151	-59.413	34.139	-0.305	53.005
1050	-0.301	52.151	-59.317	34.808	-59.334	33.792	-0.3	51.739
1060	-0.3	50.934	-59.275	32.841	-59.308	34.001	-0.296	50.521
1070	-0.298	49.682	-59.122	32.262	-59.086	33.45	-0.305	49.28
1080	-0.301	48.48	-58.961	33.063	-58.924	31.602	-0.302	48.042
1090	-0.306	47.197	-58.916	31.593	-58.845	30.944	-0.301	46.8
1100	-0.304	45.958	-58.83	30.016	-58.821	31.908	-0.302	45.519
1110	-0.303	44.684	-58.621	30.503	-58.685	30.581	-0.298	44.269
1120	-0.3	43.473	-58.478	30.338	-58.399	28.835	-0.297	42.953
1130	-0.295	42.21	-58.493	27.791	-58.418	29.276	-0.299	41.703
1140	-0.301	40.899	-58.379	28.281	-58.397	29.372	-0.294	40.427
1150	-0.301	39.627	-58.092	29.29	-58.106	27.56	-0.293	39.216
1160	-0.291	38.362	-58.042	26.956	-58.002	27.318	-0.291	37.948
1170	-0.292	37.105	-58.002	25.836	-57.92	27.584	-0.29	36.697
1180	-0.291	35.826	-57.822	27.111	-57.811	26.491	-0.287	35.453
1190	-0.292	34.608	-57.664	26.32	-57.648	25.259	-0.29	34.185
1200	-0.286	33.313	-57.56	24.101	-57.521	25.523	-0.282	32.931
1210	-0.282	32.091	-57.47	24.87	-57.451	25.092	-0.291	31.7
1220	-0.289	30.803	-57.341	24.083	-57.245	23.264	-0.287	30.392
1230	-0.288	29.552	-57.198	22.709	-57.195	23.671	-0.287	29.098
1240	-0.287	28.295	-57.093	22.697	-57.066	22.777	-0.285	27.823
1250	-0.283	26.975	-56.954	21.827	-56.907	22.081	-0.283	26.547
1260	-0.284	25.754	-56.83	21.422	-56.822	21.466	-0.281	25.224
1270	-0.28	24.418	-56.711	20.754	-56.681	20.99	-0.277	23.963
1280	-0.282	23.214	-56.573	20.252	-56.55	20.529	-0.267	22.666
1290	-0.278	21.907	-56.462	19.73	-56.413	19.742	-0.268	21.4
1300	-0.276	20.638	-56.336	18.904	-56.309	19.342	-0.263	20.113
1310	-0.272	19.362	-56.223	18.587	-56.179	18.58	-0.263	18.868
1320	-0.278	18.09	-56.105	17.804	-56.075	18.105	-0.264	17.59
1330	-0.277	16.843	-55.988	17.075	-55.945	17.251	-0.261	16.311
1340	-0.276	15.556	-55.886	16.515	-55.83	16.624	-0.265	15.042
1350	-0.272	14.215	-55.759	15.673	-55.705	16.118	-0.267	13.726
1360	-0.274	12.914	-55.613	15.058	-55.583	15.23	-0.263	12.463
1370	-0.274	11.642	-55.515	14.486	-55.447	14.756	-0.263	11.134
1380	-0.272	10.275	-55.355	13.721	-55.325	14.014	-0.264	9.777
1390	-0.264	9.023	-55.244	13.502	-55.206	13.282	-0.263	8.455
1400	-0.257	7.69	-55.099	12.672	-55.069	12.981	-0.261	7.144
1410	-0.254	6.395	-54.97	11.999	-54.949	12.154	-0.254	5.866
1420	-0.249	5.106	-54.853	11.455	-54.82	11.914	-0.25	4.563
1430	-0.248	3.798	-54.713	10.793	-54.694	10.981	-0.243	3.256
1440	-0.244	2.508	-54.601	10.409	-54.555	10.428	-0.244	1.975
1450	-0.246	1.222	-54.49	9.705	-54.423	9.954	-0.242	0.672
1460	-0.239	-0.044	-54.335	9.018	-54.314	9.146	-0.236	-0.605
1470	-0.25	-1.33	-54.228	8.331	-54.177	8.43	-0.237	-1.89
1480	-0.249	-2.641	-54.108	7.567	-54.038	7.811	-0.241	-3.197
1490	-0.251	-3.969	-53.967	6.842	-53.916	7.059	-0.244	-4.514
1500	-0.252	-5.287	-53.829	6.116	-53.785	6.431	-0.245	-5.847
1510	-0.257	-6.715	-53.697	5.491	-53.674	5.546	-0.253	-7.193
1520	-0.252	-8.025	-53.569	4.727	-53.524	4.94	-0.251	-8.571
1530	-0.25	-9.392	-53.42	4.011	-53.394	4.225	-0.247	-9.954
1540	-0.246	-10.734	-53.273	3.404	-53.258	3.62	-0.244	-11.323
1550	-0.242	-12.062	-53.151	2.751	-53.125	3.01	-0.24	-12.674
1560	-0.249	-13.334	-53.017	2.08	-52.992	2.187	-0.234	-13.985
1570	-0.236	-14.703	-52.896	1.454	-52.852	1.736	-0.227	-15.318
1580	-0.229	-16.03	-52.768	0.817	-52.73	0.968	-0.229	-16.59
1590	-0.237	-17.328	-52.643	0.297	-52.585	0.354	-0.228	-17.889
1600	-0.241	-18.563	-52.513	-0.494	-52.467	-0.207	-0.223	-19.167
1610	-0.231	-19.881	-52.372	-1.138	-52.348	-0.969	-0.236	-20.426
1620	-0.243	-21.161	-52.261	-1.806	-52.215	-1.686	-0.242	-21.75
1630	-0.24	-22.489	-52.108	-2.592	-52.073	-2.407	-0.244	-23.084
1640	-0.248	-23.783	-51.988	-3.172	-51.934	-3.207	-0.249	-24.427
1650	-0.254	-25.142	-51.838	-4.02	-51.803	-3.894	-0.248	-25.827
1660	-0.258	-26.534	-51.695	-4.774	-51.648	-4.647	-0.248	-27.194
1670	-0.249	-27.943	-51.538	-5.437	-51.506	-5.33	-0.24	-28.606
1680	-0.245	-29.299	-51.394	-5.997	-51.349	-6.043	-0.234	-29.982
1690	-0.234	-30.739	-51.24	-6.781	-51.202	-6.707	-0.226	-31.357
1700	-0.219	-32.091	-51.068	-7.533	-51.059	-7.327	-0.215	-32.758
1710	-0.216	-33.417	-50.942	-8.106	-50.899	-7.926	-0.205	-34.059
1720	-0.21	-34.759	-50.785	-8.762	-50.76	-8.564	-0.196	-35.425
1730	-0.204	-36.104	-50.655	-9.454	-50.604	-9.306	-0.192	-36.73
1740	-0.208	-37.438	-50.512	-10.118	-50.46	-9.953	-0.194	-38.071
1750	-0.2	-38.76	-50.354	-10.889	-50.316	-10.691	-0.194	-39.426
1760	-0.202	-40.111	-50.224	-11.561	-50.173	-11.424	-0.199	-40.756
1770	-0.208	-41.484	-50.061	-12.41	-50.019	-12.231	-0.208	-42.155
1780	-0.213	-42.944	-49.917	-13.179	-49.872	-13.09	-0.211	-43.537
1790	-0.214	-44.309	-49.755	-13.918	-49.723	-13.882	-0.216	-44.966
1800	-0.218	-45.75	-49.582	-14.801	-49.555	-14.633	-0.216	-46.444
1810	-0.214	-47.155	-49.431	-15.467	-49.387	-15.447	-0.222	-47.875
1820	-0.213	-48.62	-49.243	-16.32	-49.229	-16.139	-0.21	-49.34
1830	-0.201	-50.051	-49.087	-16.908	-49.038	-16.952	-0.196	-50.751
1840	-0.205	-51.447	-48.911	-17.709	-48.88	-17.651	-0.191	-52.189
1850	-0.19	-52.834	-48.758	-18.378	-48.73	-18.279	-0.189	-53.531
1860	-0.186	-54.225	-48.583	-19.124	-48.55	-19.047	-0.183	-54.927
1870	-0.189	-55.624	-48.426	-19.982	-48.394	-19.784	-0.182	-56.286
1880	-0.193	-56.975	-48.276	-20.561	-48.229	-20.571	-0.187	-57.686
1890	-0.188	-58.376	-48.089	-21.511	-48.069	-21.332	-0.19	-59.082
1900	-0.197	-59.8	-47.94	-22.193	-47.903	-22.291	-0.196	-60.491
1910	-0.204	-61.201	-47.767	-22.937	-47.731	-23.025	-0.193	-61.946
1920	-0.201	-62.656	-47.576	-23.944	-47.55	-23.781	-0.197	-63.402
1930	-0.204	-64.171	-47.413	-24.777	-47.38	-24.738	-0.2	-64.879
1940	-0.198	-65.58	-47.218	-25.539	-47.193	-25.391	-0.201	-66.361
1950	-0.197	-66.998	-47.062	-26.255	-47.013	-26.502	-0.199	-67.805
1960	-0.192	-68.468	-46.867	-27.131	-46.831	-26.964	-0.193	-69.26
1970	-0.191	-69.901	-46.681	-27.893	-46.648	-27.925	-0.191	-70.691
1980	-0.186	-71.313	-46.479	-28.738	-46.458	-28.766	-0.191	-72.131
1990	-0.198	-72.83	-46.32	-29.535	-46.278	-29.409	-0.194	-73.539
2000	-0.203	-74.261	-46.107	-30.276	-46.086	-30.464	-0.189	-75.004
2010	-0.193	-75.696	-45.942	-31.272	-45.893	-30.994	-0.196	-76.47
2020	-0.206	-77.176	-45.72	-32.174	-45.721	-32.031	-0.203	-77.92
2030	-0.202	-78.705	-45.529	-32.997	-45.51	-32.887	-0.211	-79.447
2040	-0.204	-80.238	-45.322	-34.004	-45.311	-33.832	-0.214	-80.953
2050	-0.208	-81.72	-45.138	-34.736	-45.116	-34.755	-0.216	-82.498
2060	-0.208	-83.238	-44.924	-35.633	-44.902	-35.637	-0.214	-84.02
2070	-0.201	-84.749	-44.718	-36.538	-44.702	-36.539	-0.207	-85.533
2080	-0.2	-86.24	-44.517	-37.387	-44.494	-37.425	-0.204	-87.048
2090	-0.196	-87.704	-44.299	-38.157	-44.279	-38.196	-0.195	-88.528
2100	-0.2	-89.124	-44.11	-39.043	-44.068	-39.043	-0.197	-89.937
2110	-0.205	-90.662	-43.89	-39.922	-43.869	-39.825	-0.197	-91.391
2120	-0.205	-92.126	-43.676	-40.822	-43.653	-40.718	-0.208	-92.895
2130	-0.212	-93.566	-43.465	-41.675	-43.444	-41.687	-0.219	-94.376
2140	-0.217	-95.086	-43.234	-42.637	-43.22	-42.55	-0.232	-95.896
2150	-0.232	-96.638	-43.016	-43.632	-42.999	-43.53	-0.237	-97.409
2160	-0.239	-98.165	-42.788	-44.513	-42.783	-44.516	-0.253	-99.014
2170	-0.247	-99.798	-42.566	-45.537	-42.543	-45.558	-0.26	-100.654
2180	-0.251	-101.432	-42.321	-46.595	-42.296	-46.507	-0.254	-102.252
2190	-0.239	-103.064	-42.074	-47.438	-42.058	-47.408	-0.249	-103.878
2200	-0.227	-104.639	-41.824	-48.329	-41.805	-48.398	-0.246	-105.491
2210	-0.219	-106.201	-41.575	-49.336	-41.562	-49.274	-0.23	-107.003
2220	-0.215	-107.742	-41.321	-50.173	-41.303	-50.176	-0.227	-108.553
2230	-0.214	-109.274	-41.06	-51.148	-41.051	-51.106	-0.224	-110.08
2240	-0.225	-110.785	-40.821	-52.023	-40.79	-51.927	-0.22	-111.586
2250	-0.218	-112.314	-40.551	-52.904	-40.528	-52.95	-0.221	-113.169
2260	-0.226	-113.91	-40.296	-53.959	-40.269	-53.924	-0.227	-114.706
2270	-0.24	-115.444	-40.034	-54.988	-40.013	-54.921	-0.237	-116.235
2280	-0.238	-117.095	-39.759	-56.106	-39.745	-56.025	-0.252	-117.863
2290	-0.26	-118.733	-39.481	-57.199	-39.475	-57.146	-0.271	-119.514
2300	-0.268	-120.453	-39.202	-58.3	-39.195	-58.212	-0.275	-121.275
2310	-0.269	-122.183	-38.913	-59.348	-38.909	-59.373	-0.285	-123.043
2320	-0.263	-123.936	-38.619	-60.379	-38.602	-60.398	-0.282	-124.869
2330	-0.256	-125.677	-38.311	-61.473	-38.303	-61.483	-0.278	-126.622
2340	-0.253	-127.42	-38.005	-62.538	-37.983	-62.541	-0.265	-128.32
2350	-0.251	-129.144	-37.689	-63.665	-37.674	-63.58	-0.26	-130.028
2360	-0.245	-130.839	-37.362	-64.699	-37.354	-64.676	-0.253	-131.718
2370	-0.231	-132.469	-37.031	-65.751	-37.025	-65.742	-0.251	-133.393
2380	-0.234	-134.268	-36.691	-66.967	-36.674	-66.87	-0.254	-135.12
2390	-0.252	-135.991	-36.369	-68.062	-36.337	-68.022	-0.247	-136.782
2400	-0.248	-137.656	-36.036	-69.243	-36	-69.26	-0.263	-138.472
2410	-0.271	-139.437	-35.713	-70.553	-35.671	-70.511	-0.279	-140.255
2420	-0.285	-141.292	-35.375	-71.798	-35.348	-71.646	-0.296	-142.066
2430	-0.291	-143.225	-35.024	-73.07	-34.999	-72.975	-0.313	-143.921
2440	-0.304	-145.037	-34.67	-74.208	-34.639	-74.346	-0.323	-145.891
2450	-0.309	-146.973	-34.309	-75.459	-34.279	-75.486	-0.338	-147.818
2460	-0.315	-148.912	-33.923	-76.712	-33.894	-76.79	-0.333	-149.755
2470	-0.311	-150.878	-33.521	-78.057	-33.511	-78.091	-0.331	-151.711
2480	-0.318	-152.765	-33.116	-79.34	-33.092	-79.354	-0.33	-153.645
2490	-0.319	-154.72	-32.701	-80.665	-32.704	-80.661	-0.332	-155.538
2500	-0.319	-156.664	-32.297	-82.122	-32.272	-81.911	-0.34	-157.47
2510	-0.326	-158.618	-31.87	-83.554	-31.844	-83.369	-0.341	-159.438
2520	-0.334	-160.572	-31.443	-84.954	-31.412	-84.828	-0.34	-161.382
2530	-0.343	-162.561	-31.019	-86.454	-30.979	-86.334	-0.348	-163.403
2540	-0.357	-164.632	-30.585	-88.021	-30.559	-87.975	-0.369	-165.492
2550	-0.369	-166.745	-30.156	-89.627	-30.131	-89.541	-0.38	-167.53
2560	-0.378	-168.883	-29.723	-91.134	-29.69	-91.073	-0.398	-169.716
2570	-0.406	-171.067	-29.267	-92.709	-29.236	-92.647	-0.425	-171.924
2580	-0.419	-173.269	-28.801	-94.221	-28.767	-94.205	-0.443	-174.122
2590	-0.428	-175.443	-28.301	-95.744	-28.275	-95.787	-0.452	-176.38
2600	-0.438	-177.726	-27.775	-97.359	-27.753	-97.408	-0.464	-178.671
2610	-0.45	179.966	-27.247	-99.045	-27.221	-99.094	-0.463	179.054
2620	-0.455	177.614	-26.706	-100.81	-26.689	-100.811	-0.477	176.683
2630	-0.472	175.178	-26.162	-102.738	-26.148	-102.749	-0.492	174.234
2640	-0.486	172.779	-25.589	-104.615	-25.581	-104.581	-0.502	171.819
2650	-0.507	170.196	-25.023	-106.679	-25.008	-106.563	-0.522	169.375
2660	-0.544	167.618	-24.503	-109.216	-24.443	-108.694	-0.548	166.76
2670	-0.56	165.067	-23.914	-111.255	-23.864	-110.857	-0.578	164.138
2680	-0.571	162.274	-23.322	-113.45	-23.334	-113.446	-0.595	161.421
2690	-0.599	159.539	-22.724	-115.622	-22.719	-115.672	-0.616	158.639
2700	-0.617	156.729	-22.099	-117.918	-22.108	-117.991	-0.647	155.784
2710	-0.642	153.757	-21.443	-120.21	-21.455	-120.342	-0.672	152.901
2720	-0.672	150.777	-20.769	-122.572	-20.771	-122.734	-0.692	149.807
2730	-0.703	147.655	-20.079	-125.089	-20.073	-125.249	-0.723	146.713
2740	-0.738	144.51	-19.357	-127.653	-19.362	-127.876	-0.759	143.505
2750	-0.788	141.144	-18.626	-130.539	-18.633	-130.755	-0.8	140.123
2760	-0.831	137.672	-17.87	-133.493	-17.875	-133.755	-0.835	136.708
2770	-0.889	134.04	-17.106	-136.703	-17.089	-136.944	-0.9	133.118
2780	-0.963	130.286	-16.317	-140.105	-16.289	-140.265	-0.964	129.335
2790	-1.046	126.233	-15.528	-143.604	-15.516	-143.819	-1.049	125.382
2800	-1.121	121.957	-14.705	-147.41	-14.706	-147.481	-1.135	121.086
2810	-1.217	117.492	-13.873	-151.34	-13.867	-151.441	-1.23	116.593
2820	-1.32	112.774	-13.019	-155.599	-13.023	-155.712	-1.336	111.888
2830	-1.432	107.81	-12.126	-160.164	-12.131	-160.09	-1.465	106.853
2840	-1.589	102.49	-11.225	-164.811	-11.241	-164.875	-1.612	101.5
2845	-1.67	99.77	-10.767	-167.371	-10.78	-167.506	-1.699	98.695
2850	-1.768	96.863	-10.314	-169.997	-10.322	-170.083	-1.794	95.888
2855	-1.876	93.92	-9.856	-172.709	-9.869	-172.893	-1.903	92.881
2860	-1.995	90.823	-9.395	-175.542	-9.412	-175.67	-2.02	89.818
2865	-2.135	87.705	-8.932	-178.507	-8.957	-178.582	-2.148	86.631
2870	-2.278	84.425	-8.47	178.409	-8.488	178.255	-2.29	83.33
2875	-2.441	80.997	-8.014	175.209	-8.033	175.093	-2.452	79.922
2880	-2.635	77.448	-7.566	171.86	-7.579	171.772	-2.636	76.423
2885	-2.843	73.851	-7.116	168.413	-7.131	168.296	-2.842	72.778
2890	-3.085	70.051	-6.671	164.842	-6.685	164.705	-3.076	68.989
2895	-3.349	66.153	-6.236	161.127	-6.255	161.026	-3.337	65.099
2900	-3.645	62.111	-5.816	157.264	-5.826	157.179	-3.626	61.098
2905	-3.977	57.919	-5.408	153.302	-5.42	153.237	-3.95	56.946
2910	-4.345	53.643	-5.009	149.182	-5.021	149.126	-4.315	52.7
2915	-4.752	49.282	-4.63	144.96	-4.642	144.884	-4.722	48.263
2920	-5.204	44.76	-4.271	140.615	-4.278	140.581	-5.173	43.754
2925	-5.703	40.133	-3.928	136.193	-3.935	136.152	-5.673	39.187
2930	-6.259	35.465	-3.616	131.745	-3.621	131.657	-6.223	34.499
2935	-6.872	30.663	-3.319	127.189	-3.32	127.113	-6.836	29.765
2940	-7.553	25.908	-3.051	122.55	-3.054	122.522	-7.494	24.972
2945	-8.305	21.163	-2.806	117.895	-2.807	117.912	-8.234	20.127
2950	-9.103	16.281	-2.578	113.239	-2.583	113.277	-9.076	15.35
