!Murata Part Number: GRM035R60E475ME01
!These Parameters are Measured in Series Mode Connection
!       o--ll--o
!Port1            Port2
!       o------o
!Operation Temp=25[degC], DC Bias Voltage=0[V]
!Freq. Start=100[Hz] Stop=6[GHz], 401[Steps]
!Data Generated on Oct 1, 2020
# Hz S RI R 50
!Freq.(Hz) S11(Real) S11(Imag) S21(Real) S21(Imag) S12(Real) S12(Imag) S22(Real) S22(Imag)
100.0 0.9581931406210288 -0.19161412650449572 0.041806859378971134 0.19161412650449572 0.041806859378971134 0.19161412650449572 0.9581931406210288 -0.19161412650449572
104.57921513303334 0.9547053179391973 -0.19957812821863485 0.0452946820608026 0.19957812821863485 0.0452946820608026 0.19957812821863485 0.9547053179391973 -0.19957812821863485
109.3681223784127 0.9509239755426387 -0.2078075485835568 0.04907602445736126 0.2078075485835568 0.04907602445736126 0.2078075485835568 0.9509239755426387 -0.2078075485835568
114.3763239890794 0.9468270729496258 -0.21630168235833327 0.05317292705037429 0.21630168235833327 0.05317292705037429 0.21630168235833327 0.9468270729496258 -0.21630168235833327
119.61386192579457 0.94239146549908 -0.2250583350623108 0.057608534500920024 0.2250583350623108 0.057608534500920024 0.2250583350623108 0.94239146549908 -0.2250583350623108
125.09123799230618 0.9375929471237722 -0.2340736286101455 0.062407052876227824 0.2340736286101455 0.062407052876227824 0.2340736286101455 0.9375929471237722 -0.2340736286101455
130.8194348925486 0.9324063157408182 -0.24334179555437935 0.06759368425918175 0.24334179555437935 0.06759368425918175 0.24334179555437935 0.9324063157408182 -0.24334179555437935
136.8099382520969 0.9268054647013262 -0.2528549636182096 0.07319453529867369 0.2528549636182096 0.07319453529867369 0.2528549636182096 0.9268054647013262 -0.2528549636182096
143.0747596480305 0.9207635038576936 -0.26260293285586656 0.07923649614230642 0.26260293285586656 0.07923649614230642 0.26260293285586656 0.9207635038576936 -0.26260293285586656
149.6264606933842 0.9142529138313252 -0.27257294852489516 0.08574708616867482 0.27257294852489516 0.08574708616867482 0.27257294852489516 0.9142529138313252 -0.27257294852489516
156.47817822447783 0.907245736967385 -0.28274947358779956 0.09275426303261501 0.28274947358779956 0.09275426303261501 0.28274947358779956 0.907245736967385 -0.28274947358779956
163.643650641628 0.8997138082161685 -0.2931139656675954 0.10028619178383144 0.2931139656675954 0.10028619178383144 0.2931139656675954 0.8997138082161685 -0.2931139656675954
171.13724545605763 0.8916290287512183 -0.30364466424250863 0.10837097124878176 0.30364466424250863 0.10837097124878176 0.30364466424250863 0.8916290287512183 -0.30364466424250863
178.97398809823787 0.882963684491277 -0.31431639484987917 0.1170363155087229 0.31431639484987917 0.1170363155087229 0.31431639484987917 0.882963684491277 -0.31431639484987917
187.1695920454257 0.8736908108082859 -0.3251003980384841 0.12630918919171405 0.3251003980384841 0.12630918919171405 0.3251003980384841 0.8736908108082859 -0.3251003980384841
195.74049032880657 0.8637846035540603 -0.33596419171144554 0.13621539644593963 0.33596419171144554 0.13621539644593963 0.33596419171144554 0.8637846035540603 -0.33596419171144554
204.70386848341695 0.8532208751100838 -0.3468714762772897 0.14677912488991599 0.3468714762772897 0.14677912488991599 0.3468714762772897 0.8532208751100838 -0.3468714762772897
214.0776990069143 0.8419775524564608 -0.35778209260352994 0.15802244754353917 0.35778209260352994 0.15802244754353917 0.35778209260352994 0.8419775524564608 -0.35778209260352994
223.88077739628844 0.8300352122822028 -0.36865204306645416 0.16996478771779713 0.36865204306645416 0.16996478771779713 0.36865204306645416 0.8300352122822028 -0.36865204306645416
234.132759834772 0.817377645954254 -0.3794335859292612 0.182622354045746 0.3794335859292612 0.182622354045746 0.3794335859292612 0.817377645954254 -0.3794335859292612
244.85420260451448 0.8039924447846206 -0.3900754127749518 0.1960075552153794 0.3900754127749518 0.1960075552153794 0.3900754127749518 0.8039924447846206 -0.3900754127749518
256.06660330404856 0.7898715935666694 -0.40052291769302845 0.21012840643333067 0.40052291769302845 0.21012840643333067 0.40052291769302845 0.7898715935666694 -0.40052291769302845
267.792443953192 0.7750120579023323 -0.4107185653056478 0.2249879420976678 0.4107185653056478 0.2249879420976678 0.4107185653056478 0.7750120579023323 -0.4107185653056478
280.0552360718164 0.7594163485462417 -0.42060236247602006 0.24058365145375835 0.42060236247602006 0.24058365145375835 0.42060236247602006 0.7594163485462417 -0.42060236247602006
292.87956782286926 0.7430930440075477 -0.4301124356557607 0.25690695599245245 0.4301124356557607 0.25690695599245245 0.4301124356557607 0.7430930440075477 -0.4301124356557607
306.2911533141767 0.7260572511485273 -0.4391857123229605 0.27394274885147274 0.4391857123229605 0.27394274885147274 0.4391857123229605 0.7260572511485273 -0.4391857123229605
320.3168841578819 0.7083309826818156 -0.4477587009092744 0.29166901731818434 0.4477587009092744 0.29166901731818434 0.4477587009092744 0.7083309826818156 -0.4477587009092744
334.9848833909005 0.6899434304715223 -0.4557683591346385 0.31005656952847754 0.4557683591346385 0.31005656952847754 0.4557683591346385 0.6899434304715223 -0.4557683591346385
350.32456186451077 0.6709311145447769 -0.4631530359397467 0.32906888545522306 0.4631530359397467 0.32906888545522306 0.4631530359397467 0.6709311145447769 -0.4631530359397467
366.36667721614316 0.6513378898400579 -0.4698534674606842 0.34866211015994214 0.4698534674606842 0.34866211015994214 0.4698534674606842 0.6513378898400579 -0.4698534674606842
383.1433955416162 0.6312147960226343 -0.4758138030063982 0.36878520397736575 0.4758138030063982 0.36878520397736575 0.4758138030063982 0.6312147960226343 -0.4758138030063982
400.68835589147574 0.610619740178124 -0.480982633091982 0.3893802598218761 0.480982633091982 0.3893802598218761 0.480982633091982 0.610619740178124 -0.480982633091982
419.03673772076064 0.589617007756383 -0.4853139885779669 0.4103829922436169 0.4853139885779669 0.4103829922436169 0.4853139885779669 0.589617007756383 -0.4853139885779669
438.225331427439 0.5682766035852249 -0.488768278185055 0.43172339641477514 0.488768278185055 0.43172339641477514 0.488768278185055 0.5682766035852249 -0.488768278185055
458.2926121209498 0.5466734318124332 -0.49131313136867955 0.4533265681875668 0.49131313136867955 0.4533265681875668 0.49131313136867955 0.5466734318124332 -0.49131313136867955
479.2788167687661 0.524886330880848 -0.492924114944753 0.475113669119152 0.492924114944753 0.475113669119152 0.492924114944753 0.524886330880848 -0.492924114944753
501.22602487566456 0.5029969866427202 -0.49358529504409515 0.4970030133572799 0.49358529504409515 0.4970030133572799 0.49358529504409515 0.5029969866427202 -0.49358529504409515
524.1782428574726 0.4810887529903602 -0.49328962089142137 0.51891124700964 0.49328962089142137 0.51891124700964 0.49328962089142137 0.4810887529903602 -0.49328962089142137
548.1814922784702 0.4592454144451747 -0.49203911336177447 0.5407545855548253 0.49203911336177447 0.5407545855548253 0.49203911336177447 0.4592454144451747 -0.49203911336177447
573.2839021293739 0.43754992859074715 -0.4898448489257025 0.5624500714092528 0.4898448489257025 0.5624500714092528 0.4898448489257025 0.43754992859074715 -0.4898448489257025
599.5358053309263 0.4160831877487431 -0.48672673799474336 0.5839168122512569 0.48672673799474336 0.5839168122512569 0.48672673799474336 0.4160831877487431 -0.48672673799474336
626.9898396565933 0.3949228387157317 -0.48271310527686545 0.6050771612842683 0.48271310527686545 0.6050771612842683 0.48271310527686545 0.3949228387157317 -0.48271310527686545
655.7010532767296 0.37414219671036764 -0.4778400879700319 0.6258578032896325 0.4778400879700319 0.6258578032896325 0.4778400879700319 0.37414219671036764 -0.4778400879700319
685.7270151358366 0.35380928510318516 -0.4721508749074708 0.6461907148968147 0.4721508749074708 0.6461907148968147 0.4721508749074708 0.35380928510318516 -0.4721508749074708
717.1279303842347 0.33398602635177654 -0.46569481564677334 0.6660139736482235 0.46569481564677334 0.6660139736482235 0.46569481564677334 0.33398602635177654 -0.46569481564677334
749.9667610955984 0.31472760230026575 -0.45852643261879755 0.6852723976997341 0.45852643261879755 0.6852723976997341 0.45852643261879755 0.31472760230026575 -0.45852643261879755
784.3093525124082 0.296081994154211 -0.4507043716302082 0.7039180058457891 0.4507043716302082 0.7039180058457891 0.4507043716302082 0.296081994154211 -0.4507043716302082
820.2245650724522 0.27808970455808935 -0.442290326221243 0.7219102954419107 0.442290326221243 0.7219102954419107 0.442290326221243 0.27808970455808935 -0.442290326221243
857.7844124811068 0.26078365679337656 -0.4333479697522113 0.7392163432066234 0.4333479697522113 0.7392163432066234 0.4333479697522113 0.26078365679337656 -0.4333479697522113
897.0642061062428 0.24418925960996443 -0.4239419258944817 0.7558107403900354 0.4239419258944817 0.7558107403900354 0.4239419258944817 0.24418925960996443 -0.4239419258944817
938.1427059852851 0.22832462091762584 -0.414136803794258 0.7716753790823743 0.414136803794258 0.7716753790823743 0.414136803794258 0.22832462091762584 -0.414136803794258
981.102278747212 0.21320088968360218 -0.403996318969874 0.786799110316398 0.403996318969874 0.786799110316398 0.403996318969874 0.21320088968360218 -0.403996318969874
1026.0290627661395 0.19882270296458135 -0.3935825154115504 0.8011772970354186 0.3935825154115504 0.8011772970354186 0.3935825154115504 0.19882270296458135 -0.3935825154115504
1073.0131408776467 0.18518871398879858 -0.3829550987610697 0.8148112860112015 0.3829550987610697 0.8148112860112015 0.3829550987610697 0.18518871398879858 -0.3829550987610697
1122.1487210041523 0.1722921774477261 -0.3721708851827425 0.827707822552274 0.3721708851827425 0.827707822552274 0.3721708851827425 0.1722921774477261 -0.3721708851827425
1173.5343250515148 0.16012156944457606 -0.36128336584475457 0.8398784305554239 0.36128336584475457 0.8398784305554239 0.36128336584475457 0.16012156944457606 -0.36128336584475457
1227.2729864556143 0.14866122163244153 -0.3503423829769179 0.8513387783675584 0.3503423829769179 0.8513387783675584 0.3503423829769179 0.14866122163244153 -0.3503423829769179
1283.4724567750195 0.1378919517045734 -0.3393939103422656 0.8621080482954266 0.3393939103422656 0.8621080482954266 0.3393939103422656 0.1378919517045734 -0.3393939103422656
1342.245421743976 0.12779167533326724 -0.32847992867072856 0.8722083246667328 0.32847992867072856 0.8722083246667328 0.32847992867072856 0.12779167533326724 -0.32847992867072856
1403.7097272189235 0.118335987681617 -0.31763838511170966 0.881664012318383 0.31763838511170966 0.881664012318383 0.31763838511170966 0.118335987681617 -0.31763838511170966
1467.9886154715937 0.10949870556207897 -0.30690322498642797 0.8905012944379211 0.30690322498642797 0.8905012944379211 0.30690322498642797 0.10949870556207897 -0.30690322498642797
1535.2109723024755 0.10125236405756056 -0.29630448395274095 0.8987476359424392 0.29630448395274095 0.8987476359424392 0.29630448395274095 0.10125236405756056 -0.29630448395274095
1605.5115854701387 0.09356866386612915 -0.2858684290153381 0.9064313361338708 0.2858684290153381 0.9064313361338708 0.2858684290153381 0.09356866386612915 -0.2858684290153381
1679.0314149545911 0.08641886772828568 -0.27561773750271257 0.9135811322717143 0.27561773750271257 0.9135811322717143 0.27561773750271257 0.08641886772828568 -0.27561773750271257
1755.9178755965756 0.07977414602635538 -0.265571704076678 0.9202258539736446 0.265571704076678 0.9202258539736446 0.265571704076678 0.07977414602635538 -0.265571704076678
1836.3251326795319 0.0736058730139178 -0.2557464669408777 0.9263941269860821 0.2557464669408777 0.9263941269860821 0.2557464669408777 0.0736058730139178 -0.2557464669408777
1920.4144110468878 0.06788587616236576 -0.24615524558815052 0.9321141238376341 0.24615524558815052 0.9321141238376341 0.24615524558815052 0.06788587616236576 -0.24615524558815052
2008.3543183745 0.06258664183651383 -0.2368085836060019 0.9374133581634863 0.2368085836060019 0.9374133581634863 0.2368085836060019 0.06258664183651383 -0.2368085836060019
2100.321183246434 0.05768148097320977 -0.22771459119441412 0.9423185190267904 0.22771459119441412 0.9423185190267904 0.22771459119441412 0.05768148097320977 -0.22771459119441412
2196.4994087119585 0.053144658680120846 -0.21887918310534052 0.9468553413198791 0.21887918310534052 0.9468553413198791 0.21887918310534052 0.053144658680120846 -0.21887918310534052
2297.0818420326846 0.04895149173959842 -0.21030630866589892 0.9510485082604015 0.21030630866589892 0.9510485082604015 0.21030630866589892 0.04895149173959842 -0.21030630866589892
2402.270161361206 0.04507841793523521 -0.2019981713855783 0.954921582064765 0.2019981713855783 0.954921582064765 0.2019981713855783 0.04507841793523521 -0.2019981713855783
2512.2752801266033 0.041503040952662884 -0.193955436368216 0.9584969590473371 0.193955436368216 0.9584969590473371 0.193955436368216 0.041503040952662884 -0.193955436368216
2627.3177699376165 0.038204154372554144 -0.1861774243549287 0.961795845627446 0.1861774243549287 0.961795845627446 0.1861774243549287 0.038204154372554144 -0.1861774243549287
2747.6283028514745 0.035161747998714535 -0.17866229172193754 0.9648382520012855 0.17866229172193754 0.9648382520012855 0.17866229172193754 0.035161747998714535 -0.17866229172193754
2873.4481138951564 0.03235699946845135 -0.17140719615761338 0.9676430005315487 0.17140719615761338 0.9676430005315487 0.17140719615761338 0.03235699946845135 -0.17140719615761338
3005.0294847665045 0.02977225379211255 -0.1644084480579808 0.9702277462078873 0.1644084480579808 0.9702277462078873 0.1644084480579808 0.02977225379211255 -0.1644084480579808
3142.6362496850466 0.027390993175476972 -0.1576616479218972 0.9726090068245228 0.1576616479218972 0.9726090068245228 0.1576616479218972 0.027390993175476972 -0.1576616479218972
3286.544324406816 0.02519779920040234 -0.15116181020842798 0.9748022007995978 0.15116181020842798 0.9748022007995978 0.15116181020842798 0.02519779920040234 -0.15116181020842798
3437.0422594639017 0.023178309180487074 -0.1449034742510392 0.9768216908195129 0.1449034742510392 0.9768216908195129 0.1449034742510392 0.023178309180487074 -0.1449034742510392
3594.431818738024 0.02131916827160087 -0.13888080291629265 0.9786808317283991 0.13888080291629265 0.9786808317283991 0.13888080291629265 0.02131916827160087 -0.13888080291629265
3759.0285845282415 0.019607978702199422 -0.13308766975740086 0.9803920212978006 0.13308766975740086 0.9803920212978006 0.13308766975740086 0.019607978702199422 -0.13308766975740086
3931.162590326006 0.01803324729426365 -0.1275177354523014 0.9819667527057364 0.1275177354523014 0.9819667527057364 0.1275177354523014 0.01803324729426365 -0.1275177354523014
4111.17898256636 0.016584332270625196 -0.12216451433721183 0.9834156677293747 0.12216451433721183 0.9834156677293747 0.12216451433721183 0.016584332270625196 -0.12216451433721183
4299.438712682125 0.015251390186211062 -0.11702143185386954 0.9847486098137886 0.11702143185386954 0.9847486098137886 0.11702143185386954 0.015251390186211062 -0.11702143185386954
4496.31926084876 0.01402532367728586 -0.11208187372451708 0.9859746763227143 0.11208187372451708 0.9859746763227143 0.11208187372451708 0.01402532367728586 -0.11208187372451708
4702.215392871039 0.012897730592367136 -0.10733922765492523 0.9871022694076328 0.10733922765492523 0.9871022694076328 0.10733922765492523 0.012897730592367136 -0.10733922765492523
4917.539951729213 0.011860854949884501 -0.1027869183434676 0.9881391450501155 0.1027869183434676 0.9881391450501155 0.1027869183434676 0.011860854949884501 -0.1027869183434676
5142.724685371758 0.010907540060106725 -0.09841843654426821 0.9890924599398931 0.09841843654426821 0.9890924599398931 0.09841843654426821 0.010907540060106725 -0.09841843654426821
5378.221112414543 0.010031184052069556 -0.09422736289545731 0.9899688159479303 0.09422736289545731 0.9899688159479303 0.09422736289545731 0.010031184052069556 -0.09422736289545731
5624.501427482224 0.009225697960210609 -0.09020738718040264 0.9907743020397894 0.09020738718040264 0.9907743020397894 0.09020738718040264 0.009225697960210609 -0.09020738718040264
5882.059448007167 0.008485466450313827 -0.08635232364145733 0.9915145335496862 0.08635232364145733 0.9915145335496862 0.08635232364145733 0.008485466450313827 -0.08635232364145733
6151.41160438433 0.007805311200329516 -0.0826561229135178 0.9921946887996705 0.0826561229135178 0.9921946887996705 0.0826561229135178 0.007805311200329516 -0.0826561229135178
6433.097975467465 0.007180456898661472 -0.07911288108993761 0.9928195431013382 0.07911288108993761 0.9928195431013382 0.07911288108993761 0.007180456898661472 -0.07911288108993761
6727.683371482931 0.006606499780353203 -0.07571684637761701 0.9933935002196467 0.07571684637761701 0.9933935002196467 0.07571684637761701 0.006606499780353203 -0.07571684637761701
7035.758466532445 0.006079378589725665 -0.07246242374288285 0.9939206214102743 0.07246242374288285 0.9939206214102743 0.07246242374288285 0.006079378589725665 -0.07246242374288285
7357.940982955574 0.005595347835605833 -0.0693441778964806 0.994404652164394 0.0693441778964806 0.994404652164394 0.0693441778964806 0.005595347835605833 -0.0693441778964806
7694.876929926739 0.005150953191288376 -0.06635683491580302 0.9948490468087118 0.06635683491580302 0.9948490468087118 0.06635683491580302 0.005150953191288376 -0.06635683491580302
8047.241898770236 0.004743008884576636 -0.06349528275629221 0.9952569911154235 0.06349528275629221 0.9952569911154235 0.06349528275629221 0.004743008884576636 -0.06349528275629221
8415.742417590522 0.0043685769223564 -0.06075457086240099 0.9956314230776437 0.06075457086240099 0.9956314230776437 0.06075457086240099 0.0043685769223564 -0.06075457086240099
8801.117367933934 0.0040249479978681545 -0.05812990905190944 0.9959750520021317 0.05812990905190944 0.9959750520021317 0.05812990905190944 0.0040249479978681545 -0.05812990905190944
9204.139466322391 0.003709623935931525 -0.055616665815833376 0.9962903760640686 0.055616665815833376 0.9962903760640686 0.055616665815833376 0.003709623935931525 -0.055616665815833376
9625.61681362972 0.003420301540734828 -0.05321036614947125 0.9965796984592651 0.05321036614947125 0.9965796984592651 0.05321036614947125 0.003420301540734828 -0.05321036614947125
10066.394515407255 0.0031548577214860515 -0.05090668900798891 0.9968451422785141 0.05090668900798891 0.9968451422785141 0.05090668900798891 0.0031548577214860515 -0.05090668900798891
10527.356376407623 0.0029113357824572545 -0.04870146446189378 0.9970886642175427 0.04870146446189378 0.9970886642175427 0.04870146446189378 0.0029113357824572545 -0.04870146446189378
11009.426672704432 0.0026879327751449483 -0.046590670613294194 0.9973120672248551 0.046590670613294194 0.9973120672248551 0.046590670613294194 0.0026879327751449483 -0.046590670613294194
11513.572004961125 0.0024829878209801587 -0.044570430322449395 0.9975170121790198 0.044570430322449395 0.9975170121790198 0.044570430322449395 0.0024829878209801587 -0.044570430322449395
12040.803236564994 0.0022949713229613415 -0.04263700778526813 0.9977050286770386 0.04263700778526813 0.9977050286770386 0.04263700778526813 0.0022949713229613415 -0.04263700778526813
12592.177520512549 0.0021224749935788464 -0.04078680499563669 0.9978775250064211 0.04078680499563669 0.9978775250064211 0.04078680499563669 0.0021224749935788464 -0.04078680499563669
13168.800419110281 0.0019642026343707985 -0.03901635812131259 0.9980357973656291 0.03901635812131259 0.9980357973656291 0.03901635812131259 0.0019642026343707985 -0.03901635812131259
13771.82812074114 0.0018189616093874695 -0.03732233381824039 0.9981810383906123 0.03732233381824039 0.9981810383906123 0.03732233381824039 0.0018189616093874695 -0.03732233381824039
