!Murata Part Number: GRM0115C1C100GE01
!These Parameters are Measured in Series Mode Connection
!       o--ll--o
!Port1            Port2
!       o------o
!Operation Temp=25[degC], DC Bias Voltage=0[V]
!Freq. Start=100[MHz] Stop=30[GHz], 401[Steps]
!Data Generated on Feb 1, 2023
# Hz S RI R 50
!Freq.(Hz) S11(Real) S11(Imag) S21(Real) S21(Imag) S12(Real) S12(Imag) S22(Real) S22(Imag)
1.0E8 0.7166092611485049 -0.4502725541310241 0.28339073885149507 0.4502725541310241 0.28339073885149507 0.4502725541310241 0.7166092611485049 -0.4502725541310241
1.7475E8 0.45270399028197905 -0.49710352478847014 0.547296009718021 0.49710352478847014 0.547296009718021 0.49710352478847014 0.45270399028197905 -0.49710352478847014
2.495E8 0.2883112298075389 -0.4520319773102675 0.7116887701924611 0.4520319773102675 0.7116887701924611 0.4520319773102675 0.2883112298075389 -0.4520319773102675
3.2425E8 0.19311736701508148 -0.39349880771937795 0.8068826329849185 0.39349880771937795 0.8068826329849185 0.39349880771937795 0.19311736701508148 -0.39349880771937795
3.99E8 0.13617639142783478 -0.34141591120132636 0.8638236085721652 0.34141591120132636 0.8638236085721652 0.34141591120132636 0.13617639142783478 -0.34141591120132636
4.7375E8 0.10029825555081867 -0.2985065783469314 0.8997017444491813 0.2985065783469314 0.8997017444491813 0.2985065783469314 0.10029825555081867 -0.2985065783469314
5.485E8 0.07653835588377601 -0.2636169577005332 0.923461644116224 0.2636169577005332 0.923461644116224 0.2636169577005332 0.07653835588377601 -0.2636169577005332
6.2325E8 0.060113076506214676 -0.23508419185699642 0.9398869234937854 0.23508419185699642 0.9398869234937854 0.23508419185699642 0.060113076506214676 -0.23508419185699642
6.98E8 0.04834095350301841 -0.21147843991920298 0.9516590464969815 0.21147843991920298 0.9516590464969815 0.21147843991920298 0.04834095350301841 -0.21147843991920298
7.7275E8 0.03964504794727995 -0.19169564778936848 0.9603549520527201 0.19169564778936848 0.9603549520527201 0.19169564778936848 0.03964504794727995 -0.19169564778936848
8.475E8 0.03305637526628179 -0.17490712049057783 0.9669436247337183 0.17490712049057783 0.9669436247337183 0.17490712049057783 0.03305637526628179 -0.17490712049057783
9.2225E8 0.02795594956010875 -0.16049243647991782 0.9720440504398913 0.16049243647991782 0.9720440504398913 0.16049243647991782 0.02795594956010875 -0.16049243647991782
9.97E8 0.023934685270223636 -0.14798372561590556 0.9760653147297764 0.14798372561590556 0.9760653147297764 0.14798372561590556 0.023934685270223636 -0.14798372561590556
1.07175E9 0.020714051192070062 -0.1370242439430025 0.9792859488079301 0.1370242439430025 0.9792859488079301 0.1370242439430025 0.020714051192070062 -0.1370242439430025
1.1465E9 0.018099385441158043 -0.12733862049534905 0.9819006145588418 0.12733862049534905 0.9819006145588418 0.12733862049534905 0.018099385441158043 -0.12733862049534905
1.22125E9 0.015951470222395476 -0.11871165222591037 0.9840485297776044 0.11871165222591037 0.9840485297776044 0.11871165222591037 0.015951470222395476 -0.11871165222591037
1.296E9 0.0141686858879621 -0.11097313913622511 0.9858313141120378 0.11097313913622511 0.9858313141120378 0.11097313913622511 0.0141686858879621 -0.11097313913622511
1.37075E9 0.012675495241822148 -0.10398694728047692 0.9873245047581779 0.10398694728047692 0.9873245047581779 0.10398694728047692 0.012675495241822148 -0.10398694728047692
1.4455E9 0.011414827398816227 -0.09764303681323593 0.988585172601184 0.09764303681323593 0.988585172601184 0.09764303681323593 0.011414827398816227 -0.09764303681323593
1.52025E9 0.010342927735435778 -0.09185158455898322 0.9896570722645642 0.09185158455898322 0.9896570722645642 0.09185158455898322 0.010342927735435778 -0.09185158455898322
1.595E9 0.009425804880032607 -0.08653860061929868 0.9905741951199675 0.08653860061929868 0.9905741951199675 0.08653860061929868 0.009425804880032607 -0.08653860061929868
1.66975E9 0.008636734467351012 -0.08164262224020898 0.991363265532649 0.08164262224020898 0.991363265532649 0.08164262224020898 0.008636734467351012 -0.08164262224020898
1.7445E9 0.007954476004848622 -0.07711219308725813 0.9920455239951513 0.07711219308725813 0.9920455239951513 0.07711219308725813 0.007954476004848622 -0.07711219308725813
1.81925E9 0.0073619796501545945 -0.07290392147264992 0.9926380203498456 0.07290392147264992 0.9926380203498456 0.07290392147264992 0.0073619796501545945 -0.07290392147264992
1.894E9 0.00684543513279584 -0.06898096992886925 0.9931545648672042 0.06898096992886925 0.9931545648672042 0.06898096992886925 0.00684543513279584 -0.06898096992886925
1.96875E9 0.006393563259944786 -0.06531186946663219 0.9936064367400553 0.06531186946663219 0.9936064367400553 0.06531186946663219 0.006393563259944786 -0.06531186946663219
2.0435E9 0.0059970818319511465 -0.061869580630667116 0.994002918168049 0.061869580630667116 0.994002918168049 0.061869580630667116 0.0059970818319511465 -0.061869580630667116
2.11825E9 0.005648298582177363 -0.05863074390031154 0.9943517014178226 0.05863074390031154 0.9943517014178226 0.05863074390031154 0.005648298582177363 -0.05863074390031154
2.193E9 0.005340797745873878 -0.05557507664053444 0.9946592022541263 0.05557507664053444 0.9946592022541263 0.05557507664053444 0.005340797745873878 -0.05557507664053444
2.26775E9 0.005069196417654262 -0.052684884430091755 0.9949308035823456 0.052684884430091755 0.9949308035823456 0.052684884430091755 0.005069196417654262 -0.052684884430091755
2.3425E9 0.0048289534727994545 -0.04994466236358662 0.9951710465272007 0.04994466236358662 0.9951710465272007 0.04994466236358662 0.0048289534727994545 -0.04994466236358662
2.41725E9 0.004616218467150445 -0.04734076766132597 0.9953837815328495 0.04734076766132597 0.9953837815328495 0.04734076766132597 0.004616218467150445 -0.04734076766132597
2.492E9 0.004427711223109558 -0.04486114919457319 0.9955722887768905 0.04486114919457319 0.9955722887768905 0.04486114919457319 0.004427711223109558 -0.04486114919457319
2.56675E9 0.004260625172495046 -0.04249512274437519 0.9957393748275052 0.04249512274437519 0.9957393748275052 0.04249512274437519 0.004260625172495046 -0.04249512274437519
2.6415E9 0.004112549241001985 -0.04023318324356018 0.995887450758998 0.04023318324356018 0.995887450758998 0.04023318324356018 0.004112549241001985 -0.04023318324356018
2.71625E9 0.003981404314521381 -0.03806684710703908 0.9960185956854787 0.03806684710703908 0.9960185956854787 0.03806684710703908 0.003981404314521381 -0.03806684710703908
2.791E9 0.0038653912558351735 -0.035988519181995034 0.9961346087441647 0.035988519181995034 0.9961346087441647 0.035988519181995034 0.0038653912558351735 -0.035988519181995034
2.86575E9 0.0037629481326088153 -0.03399137995381196 0.996237051867391 0.03399137995381196 0.996237051867391 0.03399137995381196 0.0037629481326088153 -0.03399137995381196
2.9405E9 0.0036727148384082834 -0.0320692895041528 0.9963272851615919 0.0320692895041528 0.9963272851615919 0.0320692895041528 0.0036727148384082834 -0.0320692895041528
3.01525E9 0.0035935036833192793 -0.03021670539250884 0.9964064963166808 0.03021670539250884 0.9964064963166808 0.03021670539250884 0.0035935036833192793 -0.03021670539250884
3.09E9 0.0035242748323668673 -0.02842861216507851 0.996475725167633 0.02842861216507851 0.996475725167633 0.02842861216507851 0.0035242748323668673 -0.02842861216507851
3.16475E9 0.003464115701992293 -0.026700460617474085 0.9965358842980075 0.026700460617474085 0.9965358842980075 0.026700460617474085 0.003464115701992293 -0.026700460617474085
3.2395E9 0.003412223604603485 -0.02502811527504927 0.9965877763953965 0.02502811527504927 0.9965877763953965 0.02502811527504927 0.003412223604603485 -0.02502811527504927
3.31425E9 0.0033678910713690674 -0.02340780882525599 0.9966321089286311 0.02340780882525599 0.9966321089286311 0.02340780882525599 0.0033678910713690674 -0.02340780882525599
3.389E9 0.0033304933933753014 -0.021836102454669916 0.9966695066066247 0.021836102454669916 0.9966695066066247 0.021836102454669916 0.0033304933933753014 -0.021836102454669916
3.46375E9 0.0032994780080277987 -0.02030985122017226 0.9967005219919722 0.02030985122017226 0.9967005219919722 0.02030985122017226 0.0032994780080277987 -0.02030985122017226
3.5385E9 0.003274355426427532 -0.018826173727761786 0.9967256445735726 0.018826173727761786 0.9967256445735726 0.018826173727761786 0.003274355426427532 -0.018826173727761786
3.61325E9 0.0032546914523718584 -0.017382425510232245 0.9967453085476281 0.017382425510232245 0.9967453085476281 0.017382425510232245 0.0032546914523718584 -0.017382425510232245
3.688E9 0.003240100487661712 -0.015976175591675384 0.9967598995123381 0.015976175591675384 0.9967598995123381 0.015976175591675384 0.003240100487661712 -0.015976175591675384
3.76275E9 0.003230239753861503 -0.014605185806549422 0.9967697602461387 0.014605185806549422 0.9967697602461387 0.014605185806549422 0.003230239753861503 -0.014605185806549422
3.8375E9 0.003224804289349805 -0.013267392507111356 0.9967751957106502 0.013267392507111356 0.9967751957106502 0.013267392507111356 0.003224804289349805 -0.013267392507111356
3.91225E9 0.003223522603804843 -0.011960890347916196 0.9967764773961952 0.011960890347916196 0.9967764773961952 0.011960890347916196 0.003223522603804843 -0.011960890347916196
3.987E9 0.003226152891270633 -0.010683917881880936 0.9967738471087296 0.010683917881880936 0.9967738471087296 0.010683917881880936 0.003226152891270633 -0.010683917881880936
4.06175E9 0.0032324797184942558 -0.00943484474073462 0.996767520281506 0.00943484474073462 0.996767520281506 0.00943484474073462 0.0032324797184942558 -0.00943484474073462
4.1365E9 0.0032423111179796836 -0.008212160204843192 0.9967576888820204 0.008212160204843192 0.9967576888820204 0.008212160204843192 0.0032423111179796836 -0.008212160204843192
4.21125E9 0.0032554760256967292 -0.007014462994473499 0.9967445239743031 0.007014462994473499 0.9967445239743031 0.007014462994473499 0.0032554760256967292 -0.007014462994473499
4.286E9 0.0032718220120361123 -0.005840452137402241 0.9967281779879639 0.005840452137402241 0.9967281779879639 0.005840452137402241 0.0032718220120361123 -0.005840452137402241
4.36075E9 0.003291213261750561 -0.0046889187870827855 0.9967087867382494 0.0046889187870827855 0.9967087867382494 0.0046889187870827855 0.003291213261750561 -0.0046889187870827855
4.4355E9 0.0033135287645397016 -0.003558738881921596 0.9966864712354604 0.003558738881921596 0.9966864712354604 0.003558738881921596 0.0033135287645397016 -0.003558738881921596
4.51025E9 0.0033386606828454497 -0.0024488665500517 0.9966613393171546 0.0024488665500517 0.9966613393171546 0.0024488665500517 0.0033386606828454497 -0.0024488665500517
4.585E9 0.0033665128675077617 -0.001358328175699806 0.9966334871324922 0.001358328175699806 0.9966334871324922 0.001358328175699806 0.0033665128675077617 -0.001358328175699806
4.65975E9 0.0033969994953414054 -2.862170531373759E-4 0.9966030005046587 2.862170531373759E-4 0.9966030005046587 2.862170531373759E-4 0.0033969994953414054 -2.862170531373759E-4
4.7345E9 0.00343004380556381 7.683114374618394E-4 0.9965699561944363 -7.683114374618394E-4 0.9965699561944363 -7.683114374618394E-4 0.00343004380556381 7.683114374618394E-4
4.80925E9 0.003465576914446488 0.0018060441909556976 0.9965344230855537 -0.0018060441909556976 0.9965344230855537 -0.0018060441909556976 0.003465576914446488 0.0018060441909556976
4.884E9 0.0035035366896812485 0.0028277143278555065 0.9964964633103188 -0.0028277143278555065 0.9964964633103188 -0.0028277143278555065 0.0035035366896812485 0.0028277143278555065
4.95875E9 0.003543866667842815 0.0038340047827639585 0.9964561333321571 -0.0038340047827639585 0.9964561333321571 -0.0038340047827639585 0.003543866667842815 0.0038340047827639585
5.0335E9 0.003586515000083658 0.004825551574898206 0.9964134849999162 -0.004825551574898206 0.9964134849999162 -0.004825551574898206 0.003586515000083658 0.004825551574898206
5.10825E9 0.003631433412904687 0.005802946801905951 0.9963685665870955 -0.005802946801905951 0.9963685665870955 -0.005802946801905951 0.003631433412904687 0.005802946801905951
5.183E9 0.0036785761725982107 0.006766741395819096 0.9963214238274016 -0.006766741395819096 0.9963214238274016 -0.006766741395819096 0.0036785761725982107 0.006766741395819096
5.25775E9 0.0037278990438492144 0.007717447678224297 0.9962721009561507 -0.007717447678224297 0.9962721009561507 -0.007717447678224297 0.0037278990438492144 0.007717447678224297
5.3325E9 0.003779358235101445 0.008655541750459165 0.9962206417648987 -0.008655541750459165 0.9962206417648987 -0.008655541750459165 0.003779358235101445 0.008655541750459165
5.40725E9 0.003832909325739542 0.009581465753754233 0.9961670906742603 -0.009581465753754233 0.9961670906742603 -0.009581465753754233 0.003832909325739542 0.009581465753754233
5.482E9 0.0038885061729976283 0.010495630033603463 0.9961114938270026 -0.010495630033603463 0.9961114938270026 -0.010495630033603463 0.0038885061729976283 0.010495630033603463
5.55675E9 0.003946099799860254 0.011398415242108462 0.9960539002001398 -0.011398415242108462 0.9960539002001398 -0.011398415242108462 0.003946099799860254 0.011398415242108462
5.6315E9 0.004005637269138554 0.012290174411424038 0.9959943627308613 -0.012290174411424038 0.9959943627308613 -0.012290174411424038 0.004005637269138554 0.012290174411424038
5.70625E9 0.0040670605534215065 0.013171235030525546 0.9959329394465785 -0.013171235030525546 0.9959329394465785 -0.013171235030525546 0.0040670605534215065 0.013171235030525546
5.781E9 0.004130305415718415 0.014041901156080986 0.9958696945842813 -0.014041901156080986 0.9958696945842813 -0.014041901156080986 0.004130305415718415 0.014041901156080986
5.85575E9 0.004195300321267057 0.014902455585974568 0.995804699678733 -0.014902455585974568 0.995804699678733 -0.014902455585974568 0.004195300321267057 0.014902455585974568
5.9305E9 0.004261965407053643 0.015753162120708607 0.9957380345929464 -0.015753162120708607 0.9957380345929464 -0.015753162120708607 0.004261965407053643 0.015753162120708607
6.00525E9 0.004330211541855766 0.01659426793321567 0.9956697884581442 -0.01659426793321567 0.9956697884581442 -0.01659426793321567 0.004330211541855766 0.01659426793321567
6.08E9 0.0043999395157540136 0.01742600606128211 0.9956000604842458 -0.01742600606128211 0.9956000604842458 -0.01742600606128211 0.0043999395157540136 0.01742600606128211
6.15475E9 0.004471039403621425 0.01824859802860237 0.9955289605963787 -0.01824859802860237 0.9955289605963787 -0.01824859802860237 0.004471039403621425 0.01824859802860237
6.2295E9 0.004543390151538508 0.019062256590347215 0.9954566098484616 -0.019062256590347215 0.9954566098484616 -0.019062256590347215 0.004543390151538508 0.019062256590347215
6.30425E9 0.004616859437739201 0.01986718858706944 0.995383140562261 -0.01986718858706944 0.995383140562261 -0.01986718858706944 0.004616859437739201 0.01986718858706944
6.379E9 0.004691303859847633 0.020663597877031085 0.9953086961401523 -0.020663597877031085 0.9953086961401523 -0.020663597877031085 0.004691303859847633 0.020663597877031085
6.45375E9 0.004766569497083014 0.0214516883020957 0.995233430502917 -0.0214516883020957 0.995233430502917 -0.0214516883020957 0.004766569497083014 0.0214516883020957
6.5285E9 0.004842492889125896 0.022231666626952588 0.9951575071108741 -0.022231666626952588 0.9951575071108741 -0.022231666626952588 0.004842492889125896 0.022231666626952588
6.60325E9 0.004918902461960149 0.023003745376673313 0.9950810975380399 -0.023003745376673313 0.9950810975380399 -0.023003745376673313 0.004918902461960149 0.023003745376673313
6.678E9 0.004995620415024257 0.02376814548474856 0.9950043795849757 -0.02376814548474856 0.9950043795849757 -0.02376814548474856 0.004995620415024257 0.02376814548474856
6.75275E9 0.005072465063619106 0.024525098654294506 0.9949275349363808 -0.024525098654294506 0.9949275349363808 -0.024525098654294506 0.005072465063619106 0.024525098654294506
6.8275E9 0.0051492536064217396 0.02527484933058593 0.9948507463935781 -0.02527484933058593 0.9948507463935781 -0.02527484933058593 0.0051492536064217396 0.02527484933058593
6.90225E9 0.005225805261393301 0.026017656184869387 0.994774194738607 -0.026017656184869387 0.994774194738607 -0.026017656184869387 0.005225805261393301 0.026017656184869387
6.977E9 0.005301944686132109 0.02675379301860207 0.9946980553138677 -0.02675379301860207 0.9946980553138677 -0.02675379301860207 0.005301944686132109 0.02675379301860207
7.05175E9 0.005377505573042012 0.027483549014366643 0.9946224944269582 -0.027483549014366643 0.9946224944269582 -0.027483549014366643 0.005377505573042012 0.027483549014366643
7.1265E9 0.0054523342880501285 0.028207228284503352 0.9945476657119497 -0.028207228284503352 0.9945476657119497 -0.028207228284503352 0.0054523342880501285 0.028207228284503352
7.20125E9 0.005526293406495214 0.028925148699901232 0.994473706593505 -0.028925148699901232 0.994473706593505 -0.028925148699901232 0.005526293406495214 0.028925148699901232
7.276E9 0.005599264993363061 0.029637640017451894 0.9944007350066372 -0.029637640017451894 0.9944007350066372 -0.029637640017451894 0.005599264993363061 0.029637640017451894
7.35075E9 0.005671153478757746 0.0303450413627048 0.9943288465212422 -0.0303450413627048 0.9943288465212422 -0.0303450413627048 0.005671153478757746 0.0303450413627048
7.4255E9 0.005741887993920819 0.031047698161083305 0.994258112006079 -0.031047698161083305 0.994258112006079 -0.031047698161083305 0.005741887993920819 0.031047698161083305
7.50025E9 0.0058114240576999845 0.03174595864330741 0.9941885759422999 -0.03174595864330741 0.9941885759422999 -0.03174595864330741 0.0058114240576999845 0.03174595864330741
7.575E9 0.005879744536459283 0.032440170075376785 0.9941202554635407 -0.032440170075376785 0.9941202554635407 -0.032440170075376785 0.005879744536459283 0.032440170075376785
7.64975E9 0.005946859839380572 0.03313067487823321 0.9940531401606195 -0.03313067487823321 0.9940531401606195 -0.03313067487823321 0.005946859839380572 0.03313067487823321
7.7245E9 0.006012807352628429 0.03381780680568326 0.9939871926473716 -0.03381780680568326 0.9939871926473716 -0.03381780680568326 0.006012807352628429 0.03381780680568326
7.79925E9 0.006077650156372393 0.03450188734113684 0.9939223498436278 -0.03450188734113684 0.9939223498436278 -0.03450188734113684 0.006077650156372393 0.03450188734113684
7.874E9 0.006141475104798574 0.035183222455212645 0.9938585248952014 -0.035183222455212645 0.9938585248952014 -0.035183222455212645 0.006141475104798574 0.035183222455212645
7.94875E9 0.006204390378202148 0.03586209983930699 0.9937956096217979 -0.03586209983930699 0.9937956096217979 -0.03586209983930699 0.006204390378202148 0.03586209983930699
8.0235E9 0.006266522636128823 0.03653878669756778 0.9937334773638713 -0.03653878669756778 0.9937334773638713 -0.03653878669756778 0.006266522636128823 0.03653878669756778
8.09825E9 0.006328013910471257 0.03721352814445579 0.9936719860895287 -0.03721352814445579 0.9936719860895287 -0.03721352814445579 0.006328013910471257 0.03721352814445579
8.173E9 0.006389018377614937 0.037886546220250415 0.9936109816223851 -0.037886546220250415 0.9936109816223851 -0.037886546220250415 0.006389018377614937 0.037886546220250415
8.24775E9 0.006449699140260827 0.038558039505116 0.9935503008597392 -0.038558039505116 0.9935503008597392 -0.038558039505116 0.006449699140260827 0.038558039505116
8.3225E9 0.006510225134183443 0.03922818328570308 0.9934897748658166 -0.03922818328570308 0.9934897748658166 -0.03922818328570308 0.006510225134183443 0.03922818328570308
8.39725E9 0.006570768255037582 0.039897130207969235 0.9934292317449623 -0.039897130207969235 0.9934292317449623 -0.039897130207969235 0.006570768255037582 0.039897130207969235
8.472E9 0.0066315007776111354 0.04056501133645474 0.9933684992223888 -0.04056501133645474 0.9933684992223888 -0.04056501133645474 0.0066315007776111354 0.04056501133645474
