# GHZ S RI R 50.000000000000
0.001000000000 -0.000447239833 0.004896161300 1.005205186726 -0.006877068640 1.002190977989 -0.014271944338 0.002805844602 0.005340519237
0.001998000000 0.000238354088 0.013376869231 1.000559650499 -0.017562308663 0.998178163448 -0.017943988564 0.001165401561 0.012447599389
0.002996000000 0.000991897155 0.020112361682 1.000186466862 -0.026151135824 0.998399299220 -0.026174063851 0.001531010910 0.019306755146
0.003994000000 0.001670173244 0.026573068860 0.999907905202 -0.034826053841 0.998502059835 -0.034765576427 0.002319013886 0.025819296551
0.004992000000 0.002517699586 0.033070062540 0.999333610446 -0.043426543309 0.998173087780 -0.043112537487 0.003335155624 0.032468783315
0.005990000000 0.003428665253 0.039232995523 0.998876293544 -0.052782374883 0.997497927013 -0.052542736631 0.004366046276 0.038824610031
0.006988000000 0.004371787303 0.045383015293 0.997483929803 -0.061669025259 0.996404648567 -0.061938386531 0.005554613616 0.045065079132
0.007986000000 0.005506175119 0.051184940817 0.996577149595 -0.071376164332 0.995910619694 -0.071407708638 0.006884476415 0.050962601678
0.008984000000 0.006694639177 0.057048489802 0.995041980141 -0.080817688260 0.994358836426 -0.080926621711 0.008266896256 0.056759448794
0.009982000000 0.007899857638 0.062669048509 0.993741674101 -0.090179074984 0.993018352536 -0.090574165465 0.009856632574 0.062353961855
0.010980000000 0.009309059733 0.068117397747 0.991822748853 -0.100195807693 0.991186724373 -0.100630162445 0.011464413339 0.067771364218
0.011978000000 0.010754872046 0.073397147414 0.990063773868 -0.110111445701 0.989115875861 -0.110135368222 0.013195712673 0.072999129072
0.012976000000 0.012453354449 0.078428021289 0.987959279634 -0.119912178017 0.986995473625 -0.119731094993 0.015155940967 0.077956463765
0.013974000000 0.014244670475 0.084322732538 0.986294285401 -0.128677836094 0.985622945358 -0.129018442939 0.017577787304 0.083861224295
0.014972000000 0.016073511257 0.090178542941 0.984320992059 -0.137518385669 0.983625045768 -0.138107850022 0.019883306352 0.089642448581
0.015970000000 0.017907683063 0.096050346397 0.982360787381 -0.146489146751 0.981441775112 -0.147582282171 0.022377103196 0.095482429398
0.016968000000 0.019717705002 0.101841036427 0.980014684708 -0.155863612393 0.979226516864 -0.156021878157 0.024815292766 0.101300851163
0.017966000000 0.021712111342 0.107756010019 0.977742684179 -0.164567784113 0.976899823743 -0.165264493197 0.027288871333 0.106968723764
0.018964000000 0.023726896181 0.113552198735 0.975333810695 -0.173498202499 0.974709418581 -0.174117732475 0.029992377146 0.112572286451
0.019962000000 0.025842483730 0.119190337525 0.972644663342 -0.182285913083 0.972163956449 -0.182939790697 0.032689461193 0.118159628793
0.020960000000 0.027999683187 0.124913604856 0.969741118676 -0.191075210481 0.969217374913 -0.191988869416 0.035465469419 0.123511523842
0.021958000000 0.030149547460 0.130326582519 0.967142493020 -0.199739467045 0.966465801762 -0.200475285205 0.038532688989 0.128793653662
0.022956000000 0.032377857933 0.135779020915 0.964101798768 -0.208602041436 0.963534207267 -0.209302965352 0.041375009627 0.133860790857
0.023954000000 0.034766008457 0.141113940078 0.961039353406 -0.217052383305 0.960543600936 -0.217717682229 0.044371542213 0.138770727796
0.024952000000 0.037086948885 0.146240544268 0.957617644436 -0.225700553343 0.957391983637 -0.226097939456 0.047495774323 0.143469547305
0.025950000000 0.039192102874 0.153138935865 0.953848445407 -0.236743500816 0.954103454413 -0.236318058035 0.049863601162 0.150862655595
0.026948000000 0.042054375432 0.158602811912 0.950590955193 -0.245480882156 0.951003189654 -0.244880519891 0.053659823947 0.155969233249
0.027946000000 0.044975801782 0.163942320752 0.947295911949 -0.253133456310 0.947650541893 -0.252937929076 0.057633347253 0.160881785540
0.028944000000 0.048099735691 0.169145952940 0.944220290301 -0.261114981949 0.944083492723 -0.260945548021 0.061976383483 0.165505147020
0.029942000000 0.051465423672 0.174209692411 0.940537303364 -0.268716387095 0.940644098149 -0.268743740613 0.066616417101 0.170018864302
0.030940000000 0.054690141451 0.178947669762 0.936192996677 -0.276929189738 0.936398921167 -0.277244865091 0.071026995669 0.174083217833
0.031938000000 0.057876330477 0.184386392361 0.932755550999 -0.285236248831 0.932777993628 -0.285739334234 0.075453071101 0.179029476935
0.032936000000 0.060856194149 0.189499128882 0.928434234463 -0.293949658586 0.928641488731 -0.293878035317 0.079010764961 0.183608514439
0.033934000000 0.063598499617 0.194389998417 0.923825706482 -0.302480199735 0.924300208106 -0.302040505866 0.082514308085 0.187925176404
0.034932000000 0.066551563161 0.199225474746 0.919614360142 -0.310598464447 0.920059869426 -0.310338301408 0.086146460745 0.192027843093
0.035930000000 0.069704676047 0.203937831321 0.914895561629 -0.318411100072 0.916019755799 -0.317815080775 0.089993840948 0.196179191723
0.036928000000 0.072836979383 0.208610049508 0.910477498607 -0.326339817962 0.911565846262 -0.325965360889 0.094040564451 0.200009378757
0.037926000000 0.076668033759 0.214020772621 0.905761077383 -0.334256172793 0.907055085029 -0.333528534054 0.098898525256 0.205020613150
0.038924000000 0.080435377276 0.219402786312 0.901212216751 -0.341791971195 0.902625061143 -0.341174244285 0.103957348762 0.210015769083
0.039922000000 0.084207435692 0.224687551078 0.896706580103 -0.349246729199 0.897660892005 -0.348642814145 0.109140910467 0.214599395386
0.040920000000 0.088215377822 0.229574388423 0.891915109433 -0.356708958264 0.893133784153 -0.356427340457 0.114437876053 0.218966351500
0.041918000000 0.092114277054 0.234371312966 0.886924817011 -0.364209816024 0.888202376845 -0.363658860079 0.119476984881 0.223146189018
0.042916000000 0.096028698628 0.239165122069 0.881927038503 -0.371569213071 0.883214706533 -0.371084648238 0.124753600476 0.226890431228
0.043914000000 0.099986583218 0.243624445575 0.876675789061 -0.378894730750 0.877974784139 -0.378218339406 0.129884678010 0.230440885628
0.044912000000 0.104074541855 0.247916720629 0.871552011475 -0.385765612896 0.873163598685 -0.385170471190 0.135188173149 0.233782754955
0.045910000000 0.108104438444 0.252146857846 0.866378543023 -0.392874708901 0.867941439419 -0.392432238855 0.140416601098 0.237104070610
0.046908000000 0.112331452794 0.256113572824 0.861616775816 -0.399601049646 0.862798456927 -0.399376296791 0.145914367501 0.239871738334
0.047906000000 0.116355816166 0.260194888839 0.856403647114 -0.406466867577 0.857598991213 -0.406419901990 0.151232022283 0.242742188693
0.048904000000 0.120445842628 0.263838843165 0.851024610835 -0.413157974413 0.852362728108 -0.412736262535 0.156440353692 0.245206331607
0.049902000000 0.125213202909 0.268337692233 0.845553985201 -0.419534658945 0.847033719351 -0.419325740479 0.162786014708 0.248682296864
0.050900000000 0.130155480986 0.272772163447 0.840094508731 -0.426632418182 0.841226455728 -0.426286926602 0.169027072473 0.251973766918
0.051898000000 0.135006641641 0.277138842877 0.834395554311 -0.432617764487 0.835721150276 -0.432492931530 0.175489370825 0.255289961804
0.052896000000 0.139659008343 0.281381248510 0.828799464500 -0.438896279412 0.830421740000 -0.439033585344 0.181784451294 0.258419472280
0.053894000000 0.144545818692 0.285459784303 0.822945303188 -0.445177640211 0.824516286071 -0.445182945994 0.187954065887 0.261297587034
0.054892000000 0.149258831030 0.289525463504 0.817219702671 -0.451410189873 0.818692792006 -0.451158249439 0.194076132253 0.264069946980
0.055890000000 0.153957958955 0.293446186312 0.811472147013 -0.457424838452 0.812702346545 -0.457904710404 0.200086580623 0.266479466631
0.056888000000 0.158798319306 0.297215566271 0.805316794846 -0.463903829314 0.806851801572 -0.463862313399 0.205951378660 0.268814456495
0.057886000000 0.163616622489 0.300533974843 0.799315134036 -0.469301927668 0.801262675705 -0.469505021788 0.212094293553 0.270613895543
0.058884000000 0.168439214665 0.303629930889 0.793294554521 -0.475173823944 0.795175973888 -0.475435599880 0.218037914647 0.271890213082
0.059882000000 0.173442668937 0.306102950055 0.787454475909 -0.480488702738 0.789197949406 -0.480693374863 0.224124943476 0.272536903361
0.060880000000 0.178437395564 0.307697047235 0.780884163400 -0.485365148722 0.782412169815 -0.485884221191 0.230369940713 0.271892140717
0.061878000000 0.184086583596 0.310211014025 0.773431531093 -0.491132914489 0.774865898821 -0.491791843979 0.237359016102 0.272735571196
0.062876000000 0.189793818007 0.315460234386 0.767487954017 -0.497607147348 0.769253590789 -0.498082499678 0.244459036032 0.276905786481
0.063874000000 0.195468878102 0.319264917922 0.762079704281 -0.502848831753 0.763539455273 -0.503266208777 0.251880435199 0.279038560353
0.064872000000 0.201055843389 0.322360947069 0.755801343104 -0.507719560916 0.757409306464 -0.508065147724 0.258883500177 0.280512424373
0.065870000000 0.206405476870 0.325310906909 0.749340533512 -0.512489437414 0.750984720653 -0.513168648489 0.265661943494 0.281748255391
0.066868000000 0.211753508309 0.327975982156 0.742761228660 -0.517564869196 0.744178240463 -0.518081408740 0.272146463212 0.282681909810
0.067866000000 0.216968490795 0.330504402847 0.736215549601 -0.522097786612 0.737827883113 -0.522729644456 0.278617330849 0.283446972139
0.068864000000 0.222190071290 0.332909829165 0.729794005446 -0.526615325156 0.731179750633 -0.527673577298 0.284815835387 0.283736913627
0.069862000000 0.227213768899 0.334971805966 0.723221377835 -0.530973002805 0.724687425176 -0.532021542816 0.290893948992 0.283958445459
0.070860000000 0.232363325175 0.337023828018 0.716635938582 -0.535684173774 0.718012803858 -0.536362329652 0.296865470661 0.283779405370
0.071858000000 0.237280720203 0.338773653020 0.710000590350 -0.540166859224 0.711319002450 -0.541177510196 0.302618132530 0.283421603411
0.072856000000 0.242331084811 0.340377549831 0.703440893334 -0.544319826355 0.704448601834 -0.545252589301 0.308192634529 0.282777977836
0.073854000000 0.248032102099 0.343127248916 0.696952313472 -0.548482867075 0.697921528288 -0.549530704802 0.315529404763 0.283517328541
0.074852000000 0.253969784425 0.345862166283 0.690268193390 -0.552397746519 0.691584580389 -0.553762950067 0.322926255491 0.284350951385
0.075850000000 0.259991442692 0.348187725900 0.683566456122 -0.556544049586 0.684531663507 -0.557920691313 0.330194367255 0.284908100388
0.076848000000 0.265697209367 0.350589682152 0.676893866517 -0.560400599137 0.678085108525 -0.561926952584 0.337255911274 0.285177776655
0.077846000000 0.271432707972 0.352790798577 0.670093756911 -0.564329232577 0.671493512848 -0.565578438646 0.344230846301 0.285328042697
0.078844000000 0.277094832497 0.354705513081 0.663362567503 -0.568085553572 0.664493409379 -0.569743899229 0.351146198725 0.285051205483
0.079842000000 0.282770541284 0.356552645314 0.656431154227 -0.571874346336 0.657966586836 -0.573324441034 0.357755799800 0.284527223249
0.080840000000 0.288229657298 0.358100564075 0.649857672402 -0.575255643202 0.650899449043 -0.576517300891 0.364020308430 0.283701616556
0.081838000000 0.293664125989 0.359311196961 0.643141997089 -0.578644433985 0.644116232000 -0.580304173669 0.370249822602 0.282442842443
0.082836000000 0.299173093695 0.360354686531 0.636446871461 -0.581947191892 0.637148729973 -0.583583985085 0.376200192630 0.280911291625
0.083834000000 0.304429345454 0.361169814860 0.629487406246 -0.585341783252 0.630188654468 -0.587137696430 0.382143849469 0.279030395390
0.084832000000 0.309921378832 0.361439826252 0.622726963741 -0.588637913430 0.623048718037 -0.590119162905 0.387831936349 0.276860051966
0.085830000000 0.315958455191 0.363426683997 0.615889698382 -0.591492118497 0.616416634226 -0.593409800581 0.395324931200 0.276202117681
0.086828000000 0.322186383433 0.365400552627 0.609161968289 -0.594474933675 0.609733045717 -0.596505715975 0.402980906725 0.275844330640
0.087826000000 0.328533617246 0.366989346234 0.602238976894 -0.597475059095 0.602681847659 -0.599418100541 0.410274146710 0.275044397794
0.088824000000 0.334449817236 0.368409514829 0.595561102848 -0.600037426312 0.595907977393 -0.602220737809 0.417735464960 0.273960711611
0.089822000000 0.340436165508 0.369728052496 0.588891204111 -0.602709406452 0.588994767752 -0.604871838044 0.424613526990 0.272515254039
0.090820000000 0.346287857411 0.370651675773 0.582055230873 -0.605383894045 0.582296334645 -0.607776561595 0.431571705332 0.270729628814
0.091818000000 0.352142645412 0.371463073541 0.575113368171 -0.607985730368 0.575545532932 -0.610177015950 0.437882124044 0.268841514525
0.092816000000 0.357697982563 0.371874873375 0.568155096470 -0.610402926075 0.568511860888 -0.612484722307 0.444109661259 0.266574567491
0.093814000000 0.363299816186 0.372142250409 0.561537459102 -0.612591060851 0.561580988399 -0.614802267833 0.449915163360 0.264098993347
0.094812000000 0.368736673298 0.372068776877 0.554659272248 -0.615047929210 0.554651297250 -0.617104467505 0.455668033671 0.261349220545
0.095810000000 0.374131782989 0.371820038162 0.547763009268 -0.617162984048 0.547708181128 -0.619329828856 0.461016723402 0.258253255486
0.096808000000 0.379268128660 0.371410815138 0.541122534471 -0.619335828044 0.540995723683 -0.621043120177 0.465954821482 0.254792220376
0.097806000000 0.385658574729 0.372413377374 0.534511365368 -0.621475757506 0.534106088356 -0.623120875396 0.473346586711 0.252883375875
0.098804000000 0.392007768814 0.373562521122 0.527850443459 -0.623435591443 0.527143554004 -0.625361640095 0.480958536665 0.251003579968
0.099802000000 0.398311550336 0.374342038898 0.520850446460 -0.625269506826 0.520215199937 -0.627322513339 0.488485635941 0.248767035056
0.100800000000 0.404612800422 0.374972460648 0.514163773737 -0.627123272611 0.513676699746 -0.629102084871 0.495616326624 0.246429843185
0.101798000000 0.410525379905 0.375402190419 0.507495270165 -0.628807269209 0.506904202743 -0.630815184187 0.502231787635 0.243953027912
0.102796000000 0.416434095814 0.375333646121 0.500821913991 -0.630238044630 0.500120540556 -0.632275227146 0.508592639806 0.241177377558
0.103794000000 0.422218198435 0.375066913338 0.494201797496 -0.631673247771 0.493064400250 -0.633898921393 0.514560495303 0.237911870279
0.104792000000 0.427715072231 0.374718384505 0.487577580719 -0.633176342047 0.486563728924 -0.635201799008 0.519819286425 0.235416831038
0.105790000000 0.433138323580 0.374070220718 0.481086391659 -0.634415187201 0.479837353236 -0.636391489789 0.525228988261 0.231567984727
0.106788000000 0.438422891858 0.373191366677 0.474278921113 -0.635822828886 0.473122242617 -0.637554633164 0.530228240347 0.227601717614
0.107786000000 0.443558800244 0.371661990181 0.467847717823 -0.636859700458 0.466182330241 -0.638508556215 0.534712673733 0.223289755247
0.108784000000 0.448407438057 0.370260141883 0.461146909033 -0.638137975976 0.459734145660 -0.639359502003 0.538909526511 0.218622237012
0.109782000000 0.454788996366 0.370393436062 0.454562618631 -0.639165955550 0.453197345651 -0.640375140511 0.545947291677 0.215352228907
0.110780000000 0.461257344067 0.370400895730 0.448273467393 -0.639897191924 0.446736788436 -0.641547820260 0.553396999960 0.212313607208
0.111778000000 0.467658956552 0.370414296868 0.441602097962 -0.640817155725 0.439747500020 -0.642663809126 0.560540171423 0.208949340906
0.112776000000 0.473884030710 0.370143616626 0.434780967717 -0.641636139913 0.433241570373 -0.643623527724 0.567182967419 0.205631905007
0.113774000000 0.479704225814 0.369712606038 0.428549745506 -0.642083537900 0.426628074625 -0.644346477749 0.573447936166 0.201966882581
0.114772000000 0.485582598654 0.369002469991 0.422115142619 -0.642934871043 0.420126775617 -0.644919397445 0.579119235973 0.198225660002
0.115770000000 0.491010403102 0.368064267139 0.415606198698 -0.643455877513 0.413844167778 -0.645478649245 0.584534678347 0.194127158797
0.116768000000 0.496420969606 0.366768691806 0.409319364496 -0.644088098984 0.407216552618 -0.645793128470 0.589478164289 0.189549559513
0.117766000000 0.501539514882 0.365199099609 0.402664287258 -0.644635694482 0.401074292192 -0.645989577442 0.594075974613 0.184823883374
0.118764000000 0.506514113660 0.363393769469 0.396359165112 -0.645072204744 0.394491734386 -0.646148714423 0.598199058271 0.179890944052
0.119762000000 0.511235147776 0.361220476878 0.390176236221 -0.645383743790 0.388120129616 -0.646424605553 0.601784067285 0.174765351277
0.120760000000 0.515719772938 0.358864226517 0.383992096607 -0.645556116588 0.381504945423 -0.646496230363 0.604992792873 0.169103987124
0.121758000000 0.521871882178 0.357931376510 0.377615496486 -0.645763936147 0.375325040119 -0.646419967001 0.611469322324 0.164698635475
0.122756000000 0.528431118433 0.357484481431 0.371731047696 -0.645990406054 0.368806211171 -0.646993254553 0.618485780022 0.160543699605
0.123754000000 0.534633433410 0.356355168742 0.365110093599 -0.645986120269 0.362607444194 -0.646818539050 0.625001340524 0.156090113566
0.124752000000 0.540706267648 0.355425503669 0.358998520298 -0.646011969614 0.356056212738 -0.647039996253 0.630878122450 0.151653212213
0.125750000000 0.546729072546 0.354455687729 0.352675779322 -0.644796997419 0.352252833305 -0.648816427894 0.637733113721 0.147948351927
0.126748000000 0.552042225717 0.352524763215 0.346867519648 -0.645639990019 0.343925220393 -0.646504999328 0.641720936115 0.141590058703
0.127746000000 0.557322572913 0.350802291660 0.340696471515 -0.645520262316 0.337714489339 -0.646327308705 0.646321012912 0.136744144135
0.128744000000 0.562362525739 0.348662763395 0.334592617289 -0.645365909369 0.331394127736 -0.645958499940 0.650330993662 0.131587769162
0.129742000000 0.566921683157 0.346310517974 0.328346469602 -0.645051251931 0.325533623464 -0.645501578471 0.653927276392 0.126186640415
0.130740000000 0.571437240820 0.343817028934 0.322382003175 -0.644787984222 0.319558964115 -0.645048177997 0.657084359236 0.120625025301
0.131738000000 0.575667819998 0.340960607217 0.316345925312 -0.644502371199 0.313503368832 -0.644462890775 0.659669535287 0.114757014577
0.132736000000 0.579578996972 0.337897888985 0.310740038549 -0.644083010019 0.307979323748 -0.643796575028 0.661880182520 0.108867125827
0.133734000000 0.585578457859 0.336086869409 0.304736925272 -0.643913682035 0.301921733999 -0.643191428649 0.667348941718 0.103238530521
0.134732000000 0.591921551133 0.334731994928 0.299067672015 -0.643256065074 0.295848475863 -0.642522115885 0.673669519129 0.097953633573
0.135730000000 0.598115430912 0.333150590820 0.293092023100 -0.642537868627 0.290100974323 -0.641948769623 0.679441568828 0.092629154785
0.136728000000 0.603805496056 0.331453462636 0.287397779984 -0.641801314983 0.284154447631 -0.641028891429 0.684807633673 0.087127309655
0.137726000000 0.609290446264 0.329549638487 0.281635178724 -0.641145928035 0.278655830956 -0.640162047480 0.689600877698 0.081723013484
0.138724000000 0.614381765704 0.327222209211 0.276021428560 -0.640138885749 0.272816062334 -0.639301801464 0.693758757122 0.076289547513
0.139722000000 0.619258669061 0.325125327702 0.270462858601 -0.639454054072 0.267602334687 -0.638288805316 0.697453886095 0.070755529740
0.140720000000 0.623716384309 0.322472618270 0.264725314369 -0.638430823682 0.261937659756 -0.637341128719 0.700650707096 0.064961797135
0.141718000000 0.627970881680 0.319692973107 0.259012560064 -0.637705162937 0.256333366100 -0.636357588738 0.703188371381 0.059141734153
0.142716000000 0.631746431059 0.316410197484 0.253255959329 -0.636833118661 0.250636316079 -0.635217360827 0.705308633059 0.053156320072
0.143714000000 0.635401216766 0.313082931569 0.247706550975 -0.635952552367 0.245130225171 -0.634090954047 0.706708070629 0.047107645750
0.144712000000 0.638664378911 0.309453712778 0.242228825679 -0.634915348276 0.239821456058 -0.632896650553 0.707869694207 0.040656011398
