# GHZ S RI R 50.000000000000
0.001000000000 0.001557312277 0.004651936285 1.001804253592 -0.005391255290 1.000570390313 -0.014548262842 0.004236135645 0.005383741291
0.002998000000 0.005215565093 0.013452079142 0.996814335042 -0.022164962421 0.995814951427 -0.022312418617 0.005633978492 0.013258910066
0.004996000000 0.007365456521 0.020140452088 0.995015230903 -0.034945868232 0.994373056595 -0.034838753189 0.008045644687 0.019872466880
0.006994000000 0.009083603142 0.026206858120 0.993007226675 -0.047866605551 0.992347029214 -0.047794292984 0.010226991188 0.025960036237
0.008992000000 0.010885382190 0.031872935923 0.990601581402 -0.061248000907 0.990509212484 -0.061151526712 0.012109742803 0.031558712379
0.010990000000 0.012295050028 0.037196457515 0.988166360205 -0.074395786511 0.987872321078 -0.074305045406 0.014041956969 0.036721789592
0.012988000000 0.014035795330 0.042059573773 0.985601364164 -0.087937759740 0.985082288767 -0.087703631460 0.016095939610 0.041589505146
0.014986000000 0.015922650482 0.047675402453 0.983331140145 -0.100278035241 0.983084466704 -0.100703414398 0.018604418572 0.047117205775
0.016984000000 0.017671704135 0.053382520251 0.980973104503 -0.112852475682 0.980763210824 -0.113244475834 0.021171720653 0.052741957618
0.018982000000 0.019415611040 0.059107685243 0.978401885632 -0.125373190304 0.978298178152 -0.125473654843 0.023632627634 0.058152928961
0.020980000000 0.021310858878 0.064777000517 0.975652415852 -0.137372873984 0.975592091633 -0.137927296569 0.026362958244 0.063472510924
0.022978000000 0.023073928872 0.070079012320 0.972757806206 -0.149679844552 0.972605230539 -0.150297649989 0.029015706622 0.068433680206
0.024976000000 0.024806386012 0.075338112789 0.969505273386 -0.162109574231 0.969550299441 -0.162157423544 0.031728779091 0.073141712563
0.026974000000 0.027119164502 0.081344518391 0.966498168746 -0.174808730427 0.966547836538 -0.175142305344 0.034975236023 0.079009492491
0.028972000000 0.029373963642 0.086891885479 0.963234708611 -0.186539605132 0.963364852557 -0.186639150083 0.038673709890 0.083981361952
0.030970000000 0.031742310766 0.092024161250 0.959426704221 -0.198145091192 0.959611233114 -0.198549231318 0.042262782196 0.088558366322
0.032968000000 0.034190601836 0.097453186956 0.956019966908 -0.210384742859 0.956094721101 -0.210749564700 0.046093802497 0.093252540098
0.034966000000 0.036391752651 0.102523260387 0.951788521318 -0.222551979043 0.952371102253 -0.222929379272 0.049279501692 0.097535674814
0.036964000000 0.038979036397 0.107657392147 0.947717106671 -0.234079989231 0.948309176817 -0.234457758960 0.053033386388 0.101771378896
0.038962000000 0.041899553258 0.113442077995 0.943636806229 -0.245649823519 0.944162615031 -0.245988472775 0.057720471574 0.106938161884
0.040960000000 0.044875096641 0.118961061696 0.939332096815 -0.257479494831 0.939905810602 -0.257617277462 0.062239117546 0.111741422583
0.042958000000 0.047761976614 0.124318602434 0.934715536829 -0.268761279740 0.935532786669 -0.269175851357 0.066912076425 0.116293871162
0.044956000000 0.050751944085 0.129403174004 0.929789867917 -0.280154825286 0.930916086843 -0.280433405592 0.071495105416 0.120296293784
0.046954000000 0.053776752813 0.134243094148 0.925364000815 -0.290912159677 0.925831716657 -0.291498682508 0.076210705672 0.123916812347
0.048952000000 0.056762176450 0.138876291321 0.920287287705 -0.302492399543 0.921018769499 -0.302932333399 0.080726675974 0.127333108799
0.050950000000 0.060409276362 0.144338615247 0.915305606393 -0.313641040434 0.915573158764 -0.314253140069 0.086380658669 0.131640335873
0.052948000000 0.063990210814 0.149712425942 0.909692363353 -0.324501480465 0.910579715880 -0.325138897049 0.092108182446 0.135926891121
0.054946000000 0.067562131126 0.154929518915 0.904283930409 -0.335250133054 0.904973069604 -0.335722699725 0.097710995092 0.139749743876
0.056944000000 0.071083514598 0.160098497849 0.898640168808 -0.346247122821 0.899460761828 -0.346843792908 0.103132619740 0.143347434608
0.058942000000 0.074672123950 0.164745726996 0.892573257094 -0.357016607189 0.893684154117 -0.357437592548 0.108510839651 0.146278939647
0.060940000000 0.078391533796 0.168428450280 0.886644087980 -0.367133065272 0.887515122170 -0.367598670772 0.114005354801 0.147831680475
0.062938000000 0.083367644880 0.173688344581 0.880062850283 -0.378152804476 0.881099095548 -0.378387494332 0.121094928516 0.151390271295
0.064936000000 0.087684828206 0.178971644375 0.874403454220 -0.388374574277 0.875170419607 -0.388688567786 0.127805818464 0.154999900605
0.066934000000 0.091846930414 0.183648343087 0.867781704964 -0.398556769513 0.868330393477 -0.398923873035 0.134098287898 0.157659459750
0.068932000000 0.096008536783 0.187884804907 0.860935340705 -0.408447410333 0.861660342796 -0.408929733057 0.140189384309 0.159903708300
0.070930000000 0.100230746507 0.191875923302 0.854231649792 -0.418204474471 0.854788458747 -0.418848950121 0.146107726116 0.161585714295
0.072928000000 0.104319958323 0.195576666718 0.847281523661 -0.427923673898 0.847796540989 -0.428516963798 0.151829317258 0.162780768542
0.074926000000 0.109286159187 0.200395714822 0.840217796191 -0.437409000990 0.841027102986 -0.438302257400 0.159109976717 0.165664742848
0.076924000000 0.114279903628 0.204977817930 0.833165116808 -0.446764062312 0.833830219589 -0.448021059951 0.166578795678 0.167857693108
0.078922000000 0.119154279920 0.209441628596 0.825931595841 -0.456355240058 0.826307858834 -0.457429924259 0.173608835670 0.169807990231
0.080920000000 0.124129314416 0.213407066997 0.818388250457 -0.465638704178 0.818854789453 -0.466722740614 0.180602160527 0.170927130610
0.082918000000 0.128954146488 0.216938849339 0.810823172434 -0.474648933873 0.811178028820 -0.476079508224 0.187156634010 0.171406705719
0.084916000000 0.133835064926 0.219966959280 0.803048577414 -0.483783415458 0.803072092709 -0.484938299011 0.193587107560 0.171435817949
0.086914000000 0.139526390027 0.224550887527 0.795459844760 -0.492264009821 0.795754061514 -0.493795464557 0.201775188823 0.173164246748
0.088912000000 0.145167157886 0.228840194995 0.787518208851 -0.500801925190 0.787964978102 -0.502469686229 0.209999218501 0.174467947800
0.090910000000 0.150725846151 0.232627954282 0.779267704781 -0.509197488946 0.779886418320 -0.511234683630 0.217793369863 0.175056007183
0.092908000000 0.156153509004 0.235917113293 0.771214664341 -0.517311622883 0.771892926508 -0.519346504385 0.225217225795 0.175092396057
0.094906000000 0.161605092520 0.238810604114 0.763079673642 -0.525721073741 0.763156562876 -0.527923847852 0.232005231559 0.174500545643
0.096904000000 0.166925839266 0.241365282294 0.754865148342 -0.533806974670 0.754572141925 -0.535876112526 0.238641994822 0.173241976030
0.098902000000 0.173125508477 0.245552108396 0.746391549904 -0.541986821384 0.745931977283 -0.544372587157 0.247651738310 0.173755280847
0.100900000000 0.179519192764 0.249436431960 0.737598008813 -0.549935606907 0.737609576062 -0.552228888931 0.256442325146 0.173895429106
0.102898000000 0.185775542945 0.252682481581 0.728883848413 -0.557578309145 0.728884704128 -0.559686548528 0.264577804087 0.173463925169
0.104896000000 0.191709345874 0.255449092627 0.720193696119 -0.565134408162 0.720041433536 -0.567490705535 0.272014180681 0.172614003806
0.106894000000 0.197582794410 0.257563058403 0.711504065863 -0.572354661692 0.710974713211 -0.574472803142 0.278941611771 0.170762179972
0.108892000000 0.203414327604 0.259216523501 0.702571403388 -0.579576210887 0.701910683609 -0.581593367869 0.285604571622 0.168113382300
0.110890000000 0.210258409601 0.262576723030 0.693436779612 -0.586116030434 0.692627675865 -0.588442467101 0.294910331261 0.167157584643
0.112888000000 0.217330129074 0.266046949844 0.684123667427 -0.593460483949 0.683574386585 -0.596235251549 0.304152280277 0.166416859315
0.114886000000 0.224103867804 0.268744420967 0.675070352300 -0.600120652105 0.674358003578 -0.602991920405 0.312497478646 0.164644832413
0.116884000000 0.230450098532 0.270833939089 0.666018736359 -0.606521184005 0.664996964456 -0.609330423021 0.320107986105 0.162270842328
0.118882000000 0.236709048784 0.272273258361 0.656707354685 -0.613079902875 0.655407409539 -0.615371692426 0.327043580831 0.159199842884
0.120880000000 0.242749416897 0.273151303477 0.647577789061 -0.619236834184 0.645615853222 -0.621632984902 0.333435141859 0.155131272691
0.122878000000 0.250479945070 0.275857299334 0.637874138484 -0.625311284470 0.635999741005 -0.627687018221 0.343082435431 0.152870222712
0.124876000000 0.257819650105 0.278492249967 0.628182473993 -0.631336952508 0.626304729354 -0.634159316276 0.352408045100 0.150540883061
0.126874000000 0.265134202044 0.280491532406 0.618493587798 -0.637229106982 0.616204138983 -0.639896836456 0.360943329710 0.147002772782
0.128872000000 0.271659107624 0.281941821898 0.608318389324 -0.643065378889 0.606366445630 -0.645154401657 0.368174233197 0.143644679241
0.130870000000 0.278157473307 0.282863320950 0.598438313686 -0.648188508903 0.596491438409 -0.650109580698 0.374880152173 0.139644460728
0.132868000000 0.284515089634 0.283053765536 0.589373692248 -0.653210164981 0.586923620832 -0.655072713664 0.381008941195 0.134691275156
0.134866000000 0.292818486069 0.285177359244 0.579582538236 -0.658856601629 0.576610292654 -0.660560530304 0.390788593129 0.130819449410
0.136864000000 0.300872371847 0.286931606087 0.569656608230 -0.663631562129 0.566586875897 -0.665270028975 0.400057777254 0.126935127047
0.138862000000 0.308405361285 0.288413795461 0.559487507648 -0.668530702976 0.556489482846 -0.670031226664 0.408199494683 0.122735298424
0.140860000000 0.315384671710 0.288981252854 0.549223087355 -0.673142532162 0.546357257006 -0.674360323171 0.415300639521 0.118091236153
0.142858000000 0.321879051318 0.289223188187 0.539346471223 -0.677880078044 0.536162179456 -0.678604063459 0.421208534011 0.112881696991
0.144856000000 0.328253617578 0.288811794604 0.529304727258 -0.682312292692 0.526106730771 -0.682519010200 0.426638239726 0.107296567062
0.146854000000 0.337001446038 0.290266978713 0.519305942454 -0.686360989982 0.515783033907 -0.686715194512 0.436447256812 0.102120289842
0.148852000000 0.345498564226 0.291389471892 0.509099928476 -0.690375234436 0.505466219019 -0.690997537954 0.445804847214 0.097213775248
0.150850000000 0.353449360778 0.291984226512 0.498976564816 -0.694220526721 0.495271101779 -0.694632327155 0.453927962182 0.091725143689
0.152848000000 0.360688945008 0.291937897913 0.488772587987 -0.697989189589 0.485204394948 -0.697957047202 0.460655376109 0.086034081884
0.154846000000 0.367437161737 0.291121395720 0.478459326598 -0.701677433004 0.474764241441 -0.701422873092 0.466159091807 0.079758148495
0.156844000000 0.373801189534 0.289535660096 0.467948126726 -0.705578393953 0.464685459575 -0.704783607793 0.470758484946 0.072839598239
0.158842000000 0.382823786644 0.289912209624 0.457285956561 -0.708754906252 0.454179430544 -0.707883037637 0.480024535004 0.065904868101
0.160840000000 0.391654931764 0.290117413455 0.446932604019 -0.711877207631 0.443378585132 -0.710912729621 0.488747567426 0.059491420246
0.162838000000 0.399721919664 0.289451617891 0.435942029952 -0.715022770734 0.432736913005 -0.713768356852 0.496135678025 0.052444446823
0.164836000000 0.407294543014 0.288255310805 0.425395414288 -0.718100135662 0.422501939187 -0.716177865076 0.502182612690 0.045157220355
0.166834000000 0.414050951950 0.286135197694 0.414106168303 -0.721006981097 0.411981146186 -0.718675631681 0.506660303218 0.037413524596
0.168832000000 0.420465882286 0.283466453469 0.402957450611 -0.723809881125 0.400913489858 -0.720779125036 0.510075029576 0.029327066740
0.170830000000 0.429705104871 0.282388107339 0.392300210663 -0.725984679670 0.390385517517 -0.723152941661 0.518527902225 0.020784656202
0.172828000000 0.438641285169 0.281154934519 0.381015057686 -0.728261664058 0.379074877948 -0.724987774911 0.526208756269 0.012415568087
0.174826000000 0.446580356189 0.279690962681 0.369564364172 -0.730198967761 0.368266947516 -0.726775509838 0.532480821572 0.004211487033
0.176824000000 0.453582257304 0.277774498930 0.358099150719 -0.732090601654 0.356754652770 -0.728193106670 0.537291100833 -0.004011547134
0.178822000000 0.459793788344 0.275280844763 0.346118722436 -0.733285706570 0.345733619165 -0.729339338662 0.540551082908 -0.011982011145
0.180820000000 0.465290375167 0.272475359742 0.334001564919 -0.733857872336 0.334180277030 -0.729756515486 0.542289388039 -0.019806499538
0.182818000000 0.474300623805 0.272890537355 0.322457944171 -0.732619688777 0.322690680560 -0.728062135344 0.550048279476 -0.026200006877
0.184816000000 0.486125376056 0.272000250735 0.314602934374 -0.732814995674 0.315100203126 -0.727850418947 0.560658035631 -0.035120979804
0.186814000000 0.495398393301 0.268564104227 0.304858561482 -0.734539623614 0.305624030012 -0.729565124060 0.567448568946 -0.045898040032
0.188812000000 0.503229382478 0.264769974644 0.293781223947 -0.735857196317 0.295348155349 -0.731143570114 0.571794530599 -0.056167918977
0.190810000000 0.509694525871 0.260512402489 0.282551516774 -0.736633235182 0.284704697212 -0.732188007859 0.574145506779 -0.066093951218
0.192808000000 0.515635594954 0.255942164082 0.271083695592 -0.737093496703 0.273967006922 -0.732767465944 0.575322651977 -0.075916940903
0.194806000000 0.524958641118 0.252739988155 0.260025974180 -0.737440439242 0.263186019284 -0.732718322916 0.581599547672 -0.086817736524
0.196804000000 0.534217810905 0.249519077560 0.248801271054 -0.737288015748 0.252705554079 -0.732558276530 0.587745640737 -0.097266876232
0.198802000000 0.542193536948 0.245948446997 0.237564014173 -0.737024825498 0.241759845528 -0.732338166305 0.592042368037 -0.107796536609
0.200800000000 0.549104070629 0.242023920025 0.226238588591 -0.736316289397 0.230839125867 -0.731639174628 0.594757947242 -0.117457160451
0.202798000000 0.555072137257 0.237615708259 0.214450673537 -0.735231189552 0.220174413657 -0.731145928200 0.595988690436 -0.126660866845
0.204796000000 0.560390825370 0.232797234500 0.203395991779 -0.733629639678 0.209570301700 -0.730135386745 0.596352363187 -0.135771037993
0.206794000000 0.569587935364 0.228806935892 0.192535305738 -0.732227781071 0.199174494873 -0.728607087238 0.601651039419 -0.146705097928
0.208792000000 0.578451491616 0.224799198498 0.181626112866 -0.730606412098 0.188637161969 -0.726950588429 0.606638289402 -0.157316906917
0.210790000000 0.586300492846 0.220384901853 0.170723994745 -0.728547430819 0.178172426193 -0.725006369594 0.610001879131 -0.167684058821
0.212788000000 0.593235490004 0.215562965371 0.159855939231 -0.726261819424 0.168041978544 -0.723202793384 0.612145128102 -0.177511408936
0.214786000000 0.599181538720 0.210300427158 0.149477482452 -0.723737031252 0.158242305615 -0.721397302121 0.612868849811 -0.187166683269
0.216784000000 0.604095154588 0.204477001005 0.138971605995 -0.721151548296 0.148267493727 -0.719779241073 0.612269139462 -0.197221360638
0.218782000000 0.612646191072 0.199144037860 0.128314915876 -0.718626587382 0.138119220450 -0.717390816368 0.616150882443 -0.208958515973
0.220780000000 0.621185747395 0.193889972045 0.117856063736 -0.716202323112 0.127847683197 -0.715207898604 0.619708426857 -0.221101775844
0.222778000000 0.628534595295 0.188366693526 0.107406313562 -0.713305818886 0.117878648586 -0.712796256371 0.621839064721 -0.232262144012
0.224776000000 0.634598917575 0.182709604795 0.096952970185 -0.709863799387 0.107790963138 -0.710099368518 0.622269844835 -0.242860435141
0.226774000000 0.639556753531 0.176670421953 0.086640025863 -0.706363742473 0.097690643882 -0.707251878020 0.621086974778 -0.252966406909
0.228772000000 0.643636410176 0.170299239270 0.076211913275 -0.702347274058 0.087760650603 -0.704103058577 0.618795843164 -0.262496581353
0.230770000000 0.651550036220 0.164501217561 0.066222696918 -0.698427655572 0.078168326399 -0.700531829349 0.621433021857 -0.274308821590
0.232768000000 0.659376227575 0.158619071791 0.056393904984 -0.694573480826 0.068475995838 -0.696782113875 0.623710016994 -0.286308099172
0.234766000000 0.665868181789 0.152752894900 0.046738218726 -0.690242635673 0.059131052312 -0.693057558560 0.624417223158 -0.297775597992
0.236764000000 0.671391864286 0.146307596427 0.037212853884 -0.685631081887 0.049478156485 -0.689325806627 0.623793662943 -0.308353666167
0.238762000000 0.675816875253 0.139339316837 0.027613180949 -0.680704006956 0.040053297868 -0.685198788260 0.621344805526 -0.317997711731
0.240760000000 0.679437648811 0.132166205005 0.018400063574 -0.675612328973 0.030688320781 -0.681035210203 0.617883548068 -0.327702153017
0.242758000000 0.686794187758 0.125810495414 0.009594727236 -0.670585699935 0.021798810677 -0.676475305829 0.619169983378 -0.339821645429
0.244756000000 0.694058021097 0.119224295399 0.000523437248 -0.665574879690 0.012946925724 -0.671954877981 0.620460647616 -0.351968511026
0.246754000000 0.700060881230 0.112562138131 -0.008122978487 -0.660091392579 0.004475833284 -0.666984738131 0.620182590423 -0.363008316364
0.248752000000 0.705202838567 0.105425925304 -0.016427453678 -0.654585546475 -0.004063450616 -0.662045686394 0.618647484151 -0.373253356876
0.250750000000 0.708876450342 0.098248879829 -0.024614020307 -0.648804687852 -0.012272845648 -0.656950330516 0.615285609399 -0.382487817923
0.252748000000 0.712037673273 0.090805786094 -0.032295162406 -0.642947085516 -0.020813486206 -0.651763019160 0.610687865486 -0.391694098944
0.254746000000 0.718598073384 0.083531143976 -0.040126467341 -0.636981678097 -0.028865211256 -0.646290591671 0.610973393722 -0.403541074200
0.256744000000 0.725140055237 0.076529176436 -0.047565021078 -0.631007366489 -0.036279370956 -0.640740810819 0.611212124240 -0.415509347957
0.258742000000 0.730693325060 0.069262960561 -0.054870587265 -0.625132324566 -0.043950287533 -0.635130767353 0.610131165191 -0.426629993254
0.260740000000 0.735159118315 0.061826682008 -0.062184269152 -0.619068557522 -0.051519558180 -0.629467474851 0.607475179488 -0.436578333585
0.262738000000 0.737660025854 0.054272068991 -0.069176273537 -0.612347388041 -0.058867491144 -0.623431298807 0.602932370871 -0.445606604128
0.264736000000 0.740155740892 0.046646370321 -0.075803790769 -0.606165597797 -0.066391305818 -0.617602988268 0.597557114966 -0.454325824896
0.266734000000 0.746126874232 0.038873646995 -0.082408546929 -0.599808431107 -0.072748305046 -0.611700371727 0.596868837392 -0.466186783610
0.268732000000 0.751942942521 0.031355229016 -0.088736869415 -0.593433209571 -0.079240238122 -0.605564072668 0.596499486317 -0.477860481925
0.270730000000 0.756842321184 0.023600981099 -0.094534839648 -0.586975875430 -0.085722869656 -0.599371729804 0.594287874476 -0.488463806376
0.272728000000 0.760291546460 0.015901714029 -0.100940305805 -0.580255561187 -0.092430999497 -0.593120467010 0.589621194419 -0.499236470499
0.274726000000 0.762828379052 0.007957281278 -0.106411969995 -0.573853362676 -0.098804657912 -0.586783251135 0.584457715497 -0.507937678027
0.276724000000 0.764411688040 -0.000398542567 -0.112053993091 -0.567100235568 -0.105025163352 -0.580227323320 0.577990634435 -0.515738878612
0.278722000000 0.769646925611 -0.008413597435 -0.117286066821 -0.560569582145 -0.110346911800 -0.573898116063 0.576551292380 -0.527310025689
0.280720000000 0.774993298543 -0.016558336184 -0.122634918350 -0.553968572994 -0.115887333319 -0.567653956942 0.574966813649 -0.538787520310
0.282718000000 0.778993204916 -0.024420607594 -0.127416779660 -0.547150223692 -0.120992742505 -0.561083686771 0.572016448766 -0.549154702353
0.284716000000 0.781757336078 -0.032354754118 -0.132183793533 -0.540376307463 -0.126468530012 -0.554348589741 0.567313135522 -0.558598492413
0.286714000000 0.783215922837 -0.040345563314 -0.136834692922 -0.533574224563 -0.131597709306 -0.547695122902 0.560866601418 -0.566843149081
