# GHZ S RI R 50.000000000000
0.001000000000 0.919416521281 -0.006398071166 0.094213539418 -0.002884431282 0.092674389938 -0.001712757352 0.915905303297 -0.001851363923
0.012998000000 0.906338196380 -0.014899534930 0.090717110838 -0.004739654855 0.090607340286 -0.003234179672 0.908749717394 -0.011158288842
0.024996000000 0.905227869275 -0.019289758573 0.090517314258 -0.003525618564 0.090345666491 -0.002541366606 0.908047110126 -0.016361713020
0.036994000000 0.905285082755 -0.023980810445 0.090269452875 -0.004000146884 0.090117192029 -0.002676507482 0.907744262597 -0.021526882557
0.048992000000 0.904925036377 -0.028971435631 0.090259912199 -0.003222202899 0.090061524091 -0.002001033385 0.907714590178 -0.026625167206
0.060990000000 0.904656212810 -0.034193722382 0.090260232247 -0.001949806276 0.090088595050 -0.000899399019 0.907150960827 -0.032079213613
0.072988000000 0.904533589830 -0.039965805597 0.090187971851 -0.001280936951 0.090079333159 -0.000277731920 0.906657381946 -0.037841674470
0.084986000000 0.904243656527 -0.045411037007 0.090185043547 -0.000559110234 0.090095976774 0.000457758691 0.906923988796 -0.042888892373
0.096984000000 0.904295251111 -0.051072951330 0.090274909698 0.000160380353 0.090187336074 0.001253450326 0.906395480299 -0.048209902608
0.108982000000 0.904256632429 -0.056403483829 0.090421272498 0.000933774071 0.090316119602 0.001952535131 0.905995327431 -0.053530905410
0.120980000000 0.903975356449 -0.062271750530 0.090574137512 0.001679260041 0.090575061477 0.002734531915 0.905888777377 -0.058978850124
0.132978000000 0.903822717500 -0.067953652174 0.090890443756 0.002528205911 0.090892449511 0.003546361367 0.905919321606 -0.064738594227
0.144976000000 0.903598517918 -0.073751980855 0.091171486410 0.003438890489 0.091280155626 0.004405141451 0.905413719070 -0.070107285984
0.156974000000 0.903362936813 -0.079917179675 0.091562225560 0.004594825105 0.091670278781 0.005449067783 0.905532729420 -0.075550199700
0.168972000000 0.902659332968 -0.086341343789 0.091948636370 0.005046569395 0.092092527156 0.005966148283 0.905560187023 -0.081314349609
0.180970000000 0.902363479885 -0.092606062094 0.092295575864 0.005083296056 0.092517006685 0.006174757940 0.905011636637 -0.087085361335
0.192968000000 0.901732375141 -0.098627065672 0.092689202601 0.005206534060 0.092911689170 0.006378136057 0.904560791808 -0.093112331623
0.204966000000 0.901228731011 -0.104768753082 0.092950699567 0.005454335767 0.093202496359 0.006652665842 0.904113173196 -0.099141286928
0.216964000000 0.900082128732 -0.110399799072 0.093141262642 0.005625584911 0.093413402709 0.006796228602 0.903615412518 -0.104105157936
0.228962000000 0.899431965361 -0.116809166737 0.093210603986 0.005657198640 0.093458848098 0.006961906372 0.902968237725 -0.109967999123
0.240960000000 0.898311467521 -0.122547138492 0.093218830409 0.005788997276 0.093520499324 0.007162054003 0.902341979025 -0.115754087719
0.252958000000 0.897573126568 -0.128343945777 0.093143548456 0.005956105990 0.093370802541 0.007262769860 0.901705251909 -0.121047350153
0.264956000000 0.896222549180 -0.134147002551 0.092899416192 0.006085369556 0.093194244383 0.007433013484 0.900888530774 -0.126706850909
0.276954000000 0.895676339548 -0.139837818920 0.092727026900 0.006278097862 0.092904173022 0.007685704438 0.900281821797 -0.132088329156
0.288952000000 0.894290791630 -0.145481103942 0.092346655985 0.006567588824 0.092494155937 0.007894421904 0.899179532623 -0.136922205882
0.300950000000 0.893192838143 -0.150747282433 0.092024171159 0.006860392674 0.092135518728 0.008219235031 0.898562156965 -0.142558056120
0.312948000000 0.892666525282 -0.156014140113 0.091674688684 0.007256592856 0.091653083492 0.008728007381 0.897774042331 -0.147430613258
0.324946000000 0.891438739231 -0.161722524423 0.091273556366 0.007729767005 0.091267160464 0.009172688681 0.896587329388 -0.152071888265
0.336944000000 0.890249279044 -0.167423483380 0.090951792289 0.008294821167 0.090810445413 0.009679686979 0.895932873300 -0.157437946973
0.348942000000 0.889138681366 -0.172947310624 0.090517140863 0.008938874501 0.090450322595 0.010357128744 0.894483078167 -0.163090786797
0.360940000000 0.888030469900 -0.178368626573 0.090175546047 0.009494271829 0.090076127228 0.011025095228 0.893886366447 -0.168960575361
0.372938000000 0.887771740846 -0.184352990934 0.089922822488 0.010425438247 0.089856315871 0.011940460782 0.893237762197 -0.173761247292
0.384936000000 0.886424406585 -0.189908449330 0.089713061504 0.011417153013 0.089650496289 0.012886687646 0.892028358243 -0.179384722553
0.396934000000 0.885777326454 -0.195255323025 0.089644595339 0.012398755827 0.089576184620 0.013792484142 0.891311436256 -0.185502494434
0.408932000000 0.884710480591 -0.201469040167 0.089679489471 0.013381318632 0.089603152729 0.014841787880 0.889735603295 -0.191183539252
0.420930000000 0.883973908826 -0.207735701756 0.089834471898 0.014424307906 0.089770457684 0.015834311134 0.888873425589 -0.197182666262
0.432928000000 0.883050006825 -0.213891751045 0.090208558265 0.015502573324 0.090141257953 0.016900052963 0.888194566912 -0.202847213201
0.444926000000 0.882444245833 -0.219936167603 0.090760350706 0.016470467856 0.090690165644 0.017916379322 0.887626454863 -0.208813532762
0.456924000000 0.881094183458 -0.226065947120 0.091238672630 0.017393647769 0.091362557909 0.018791780487 0.886328616393 -0.214920993252
0.468922000000 0.880073088451 -0.232337136255 0.091952863294 0.018219239641 0.092174537372 0.019515514128 0.885046560707 -0.221122786472
0.480920000000 0.878914338758 -0.239149245439 0.092739115573 0.018836122485 0.093013921066 0.020031323018 0.884609677591 -0.227458581329
0.492918000000 0.877460172913 -0.245281105034 0.093627232265 0.019189660958 0.093871005693 0.020535608727 0.883386383714 -0.234044586138
0.504916000000 0.876216780404 -0.252117433982 0.094330874009 0.019421963098 0.094703259452 0.020678144870 0.882409945528 -0.240178629622
0.516914000000 0.874136286230 -0.257843684674 0.094975037986 0.019481768128 0.095413421540 0.020734206134 0.880841900228 -0.245880709323
0.528912000000 0.872698966408 -0.263730870788 0.095560279196 0.019342798710 0.095990175077 0.020500147269 0.879588291147 -0.252356823469
0.540910000000 0.870781159103 -0.270521783416 0.095900818498 0.019104094098 0.096442813328 0.020357164677 0.878731343258 -0.258364144511
0.552908000000 0.869001349413 -0.276163053470 0.096046285842 0.018854771406 0.096500685199 0.020070439288 0.876591132982 -0.264339422839
0.564906000000 0.867555782459 -0.282105189132 0.096030775301 0.018466059186 0.096513071919 0.019745723796 0.875252403961 -0.270106387456
0.576904000000 0.865247406796 -0.287996510604 0.095804684116 0.018062927283 0.096405368735 0.019354959523 0.873643827567 -0.276156056817
0.588902000000 0.863113872912 -0.293668737362 0.095534876806 0.017844531012 0.096045877190 0.019172521768 0.871617086031 -0.282081253371
0.600900000000 0.860550738718 -0.299562592501 0.094952210658 0.017482728108 0.095620161859 0.018797358232 0.869996972238 -0.288047626042
0.612898000000 0.858061595866 -0.305347826618 0.094375472311 0.017376042826 0.094951889915 0.018756929630 0.867846617652 -0.293112616074
0.624896000000 0.855803560395 -0.311593823302 0.093707630949 0.017297216986 0.094265353972 0.018674706051 0.865585539755 -0.298984396208
0.636894000000 0.853181400333 -0.317748980019 0.093047323722 0.017331690430 0.093509678255 0.018840027580 0.863581779931 -0.305188171517
0.648892000000 0.850653962623 -0.323981409095 0.092305964744 0.017493302932 0.092792304772 0.019042166256 0.861139456482 -0.310867488741
0.660890000000 0.847368582107 -0.330526491607 0.091457653797 0.017826253760 0.091949913303 0.019398502805 0.858425282475 -0.317405474835
0.672888000000 0.845204148694 -0.336310896959 0.090745468016 0.018320009194 0.091231211770 0.019863263969 0.856237370603 -0.323107704990
0.684886000000 0.842554485240 -0.343202213164 0.089981941930 0.019022029966 0.090542875531 0.020605287519 0.853358984323 -0.328793926243
0.696884000000 0.840192477358 -0.349409562742 0.089303018109 0.019906733991 0.089874180811 0.021599389468 0.850240100616 -0.334661594014
0.708882000000 0.836389328027 -0.355260815357 0.088675066693 0.020938833289 0.089334862707 0.022618226799 0.847620268075 -0.341822504389
0.720880000000 0.832637699220 -0.361183603925 0.088209783897 0.022069319215 0.088970545026 0.023807765788 0.845160413129 -0.347747011930
0.732878000000 0.829987110089 -0.368164062392 0.088108846805 0.023356632959 0.088765760844 0.025146598488 0.841864716753 -0.353344914157
0.744876000000 0.826670096466 -0.374704936054 0.088117622386 0.024889596510 0.088951130623 0.026478793868 0.838779086406 -0.360419986428
0.756874000000 0.823717820530 -0.381665805009 0.088398954780 0.026344969529 0.089219425129 0.028067460034 0.835983466049 -0.367068000888
0.768872000000 0.820487952063 -0.387827445211 0.088874972228 0.027720496952 0.089868510150 0.029357311422 0.832327245583 -0.373980217219
0.780870000000 0.817396664650 -0.394932998338 0.089760365821 0.028930457644 0.090733830163 0.030695978683 0.829840648234 -0.380570136842
0.792868000000 0.814043960037 -0.401397488466 0.090697405163 0.030055939769 0.091827283174 0.031781189926 0.826372306553 -0.387850591312
0.804866000000 0.810538199049 -0.407756383191 0.091882431538 0.030868443544 0.093082377084 0.032693477030 0.823160514839 -0.395022966166
0.816864000000 0.807476531667 -0.414809454621 0.093021465697 0.031445778531 0.094634358925 0.033038702551 0.820359455320 -0.401936962000
0.828862000000 0.804830478169 -0.421806095352 0.094410660138 0.031630918347 0.095864274996 0.033314983419 0.818088436011 -0.408190429171
0.840860000000 0.802148763977 -0.427984973966 0.095563067766 0.031587438259 0.097062845687 0.033121910944 0.816023112848 -0.415324522135
0.852858000000 0.797986305388 -0.433827866289 0.096556889125 0.031195596681 0.098158303394 0.032575057235 0.813584894358 -0.422324629104
0.864856000000 0.794924858548 -0.439557506346 0.097348817078 0.030639790054 0.098833422764 0.031893142242 0.811594375298 -0.429197595141
0.876854000000 0.792520111666 -0.445446851352 0.097942773269 0.029706156053 0.099303488518 0.031196985101 0.809244637561 -0.435684250438
0.888852000000 0.789604471918 -0.451054531995 0.098030737941 0.028709018210 0.099392672012 0.030260366872 0.806517295464 -0.442104204867
0.900850000000 0.786337393644 -0.456910168385 0.097882857164 0.027603260525 0.099150978918 0.029352784839 0.803848942124 -0.448482041738
0.912848000000 0.782484463937 -0.463337149246 0.097375461412 0.026561082515 0.098665206484 0.028324141870 0.799700105414 -0.453634507999
0.924846000000 0.778195014273 -0.468515174017 0.096469020394 0.025601233784 0.097892840010 0.027425771624 0.796064276878 -0.459654992081
0.936844000000 0.775313182140 -0.474107971327 0.095460370635 0.024948300521 0.096976782797 0.026765333512 0.793230102808 -0.464509609708
0.948842000000 0.772429767878 -0.479421003379 0.094271236591 0.024534179915 0.095843512067 0.026435773426 0.790420872087 -0.468919643443
0.960840000000 0.768084615680 -0.484882283503 0.093103396311 0.024437787477 0.094421825726 0.026097526640 0.787723055466 -0.474650057333
0.972838000000 0.762631818829 -0.489687081216 0.091695347768 0.024360449012 0.092838043083 0.026091040919 0.783778720311 -0.479572982947
0.984836000000 0.759183016346 -0.494319079296 0.090233264866 0.024680625298 0.091214802037 0.026293617118 0.779145702052 -0.484836334695
0.996834000000 0.753836619002 -0.499460519645 0.088698073320 0.025345273845 0.089628463532 0.026885857291 0.774054136947 -0.489455652878
1.008832000000 0.747783573778 -0.505405909484 0.087229961074 0.026192560837 0.088098035666 0.027619762685 0.768805562375 -0.494625714293
1.020830000000 0.742073935120 -0.512030491822 0.085998184333 0.027343735661 0.086725326977 0.028804704908 0.762970048617 -0.500805616328
1.032828000000 0.736637882423 -0.517391413003 0.084835496905 0.028808084680 0.085620993702 0.030136900001 0.757644329247 -0.504888695206
1.044826000000 0.732424423176 -0.521774767676 0.083832640972 0.030557312594 0.084761828722 0.032043622081 0.753197946008 -0.510028373193
1.056824000000 0.727178659940 -0.527776603023 0.083172266057 0.032485224166 0.084211765257 0.033978438770 0.747437037615 -0.515606436913
1.068822000000 0.721064097344 -0.533427774476 0.083023661141 0.034694709124 0.083925170438 0.036053221212 0.741708529234 -0.521754654036
1.080820000000 0.714372672167 -0.538934843394 0.083156248693 0.037147136868 0.084115282790 0.038323679825 0.736613786776 -0.528289879114
1.092818000000 0.709277670279 -0.545756365042 0.083934625633 0.039354255697 0.084841871592 0.040686025479 0.730826896778 -0.535500896942
1.104816000000 0.704004042400 -0.552602729337 0.085126216010 0.041419410664 0.086131835327 0.043013812398 0.725461988466 -0.542887566002
1.116814000000 0.698931532295 -0.559607135333 0.086795394663 0.043295102507 0.087842710217 0.044955726545 0.720468663376 -0.550814450568
1.128812000000 0.694305784299 -0.566050197505 0.088998222557 0.044831460581 0.090137872316 0.046629747624 0.716191715550 -0.558979762805
1.140810000000 0.688781165655 -0.573040557460 0.091522376518 0.045814476593 0.092571616056 0.047499575905 0.711629245738 -0.566692716673
1.152808000000 0.683929405318 -0.578169180096 0.094050378503 0.046153126613 0.094923112433 0.048035589512 0.707426106654 -0.573017123424
1.164806000000 0.678780535929 -0.584871148921 0.096501166791 0.045943186082 0.097271202546 0.047606059386 0.703399361183 -0.579138451568
1.176804000000 0.674885683436 -0.592324484075 0.098695547628 0.044997974357 0.099526039156 0.046424446729 0.698160078886 -0.586430734198
1.188802000000 0.670188115206 -0.597509205720 0.100182444790 0.043479868964 0.101291912298 0.044731157405 0.693648055384 -0.593303836713
1.200800000000 0.667220535921 -0.602558306553 0.101136552949 0.041676191136 0.102461287156 0.042974893631 0.689614932153 -0.599431855811
1.212798000000 0.664577068022 -0.606459568521 0.101394252131 0.039640179421 0.102996760662 0.041185462210 0.686066212673 -0.604220109990
1.224796000000 0.660330739489 -0.610578101372 0.101294444790 0.037659621258 0.102817680125 0.039342942489 0.682781465129 -0.609718336103
1.236794000000 0.655504227984 -0.614383205652 0.100507755485 0.036009348995 0.101885326365 0.037590327729 0.679066771649 -0.613715585527
1.248792000000 0.649713847735 -0.617584752358 0.099120655311 0.034387254750 0.100359006035 0.036062666594 0.674704168671 -0.618348442892
1.260790000000 0.643609790604 -0.621060187240 0.097306190879 0.033111034972 0.098438393802 0.034824422867 0.669597700540 -0.622368649683
1.272788000000 0.638063005886 -0.623747434510 0.095125668465 0.032093537624 0.096347893728 0.033850222357 0.663406285121 -0.627340005155
1.284786000000 0.632022753889 -0.628429381241 0.093003035148 0.031826794708 0.093889513255 0.033324969611 0.658440397922 -0.630127588584
1.296784000000 0.625418680922 -0.633045276254 0.090670782432 0.031561749937 0.091549052619 0.033378622593 0.652777050383 -0.633278720809
1.308782000000 0.622079957465 -0.636185381266 0.088411499071 0.032067918307 0.089013380450 0.034058759510 0.647351896056 -0.636214347927
1.320780000000 0.614422517988 -0.636372905355 0.085829787681 0.033340555242 0.086448482348 0.035281866095 0.641807519585 -0.637107464994
1.332778000000 0.607176744665 -0.640160122619 0.083735206950 0.034609796306 0.084128289177 0.036464563561 0.632301162791 -0.641140969476
1.344776000000 0.599643411353 -0.644100094707 0.081638110775 0.036524549731 0.082021767879 0.038492908830 0.625299560129 -0.645159178196
1.356774000000 0.591648462650 -0.647443859916 0.079796099245 0.038813641926 0.080375587138 0.040649694934 0.617669826834 -0.650109632781
1.368772000000 0.583996834976 -0.650569654208 0.078469336939 0.041401831155 0.078884678708 0.043482384036 0.609662520902 -0.653072061855
1.380770000000 0.577932929269 -0.655601595251 0.077821187491 0.044594125550 0.078020556277 0.046734831250 0.601977170486 -0.657212474383
1.392768000000 0.571845848455 -0.661117050163 0.077733109846 0.048145392020 0.077769833274 0.050326879000 0.595392707160 -0.663499582323
1.404766000000 0.563049521087 -0.666268034539 0.078262786805 0.051729682212 0.078345956397 0.054248855747 0.588991834879 -0.669627212024
1.416764000000 0.555198626308 -0.671292110322 0.079589769789 0.055443633905 0.079837825592 0.057924852085 0.581639707747 -0.675768053102
1.428762000000 0.547681007903 -0.677237741391 0.081879745709 0.058951169869 0.082217022690 0.061550633967 0.573227591040 -0.680838570656
1.440760000000 0.541206714385 -0.684381542875 0.085211943146 0.062004847952 0.085504945508 0.064580434020 0.565001612017 -0.687473209361
1.452758000000 0.536330018268 -0.691630647830 0.089147498586 0.064506624130 0.089763243482 0.067459436667 0.559182817688 -0.692895316829
1.464756000000 0.530875732098 -0.697456886776 0.093455956923 0.065932469552 0.094395042566 0.068799456468 0.553053178993 -0.700910990671
1.476754000000 0.525432865470 -0.700477794693 0.097873028776 0.066281278704 0.098978293354 0.069209789326 0.546859184616 -0.706486707394
1.488752000000 0.520414114196 -0.706505677714 0.102116348683 0.065318988084 0.103640529139 0.068147746672 0.541891596840 -0.712334844703
1.500750000000 0.513597079273 -0.710777039128 0.105536324911 0.063011157800 0.107314860303 0.066290374935 0.535989358725 -0.719066390265
1.512748000000 0.507989489513 -0.714156647154 0.108070210776 0.060395823503 0.110163471339 0.062925031801 0.531914155328 -0.724506577400
1.524746000000 0.502568715248 -0.717722259501 0.109652667001 0.057238637914 0.111615569335 0.059318168982 0.526212883378 -0.729440313922
1.536744000000 0.497085236469 -0.721727833061 0.110361927031 0.053673524930 0.112016684781 0.055549726403 0.521129036978 -0.734161481268
1.548742000000 0.492420164664 -0.725700456041 0.109854916150 0.050570670680 0.111366554662 0.052275191271 0.516562668589 -0.739182255606
1.560740000000 0.487093197328 -0.728813299544 0.108575636200 0.047608349694 0.109759776702 0.049216730439 0.511354250404 -0.741957751404
1.572738000000 0.482847061560 -0.731327019844 0.106700931663 0.045531231487 0.107676100446 0.047254287024 0.508580827025 -0.745292691889
1.584736000000 0.477338622158 -0.732905786095 0.103956093193 0.043613430397 0.104761552948 0.045711061540 0.503617455370 -0.747318823734
1.596734000000 0.471766807393 -0.735616504055 0.100848971021 0.042568345607 0.101605372823 0.044686426731 0.499260720844 -0.749132533056
1.608732000000 0.466256102127 -0.736117476651 0.097504663233 0.042478746125 0.098214943319 0.044640009317 0.493588026781 -0.750349236454
1.620730000000 0.458818033778 -0.737958109647 0.094338954758 0.042656589589 0.094737185337 0.045009309720 0.487306284200 -0.752593709961
1.632728000000 0.452180925301 -0.740162808544 0.091208268153 0.044088286363 0.091467132951 0.046070074092 0.482118096044 -0.754427660850
1.644726000000 0.445448000876 -0.742263416858 0.088270718799 0.046210639404 0.088459776739 0.047990001223 0.474137798594 -0.755927059344
1.656724000000 0.438373880830 -0.744768112339 0.085711030988 0.048953198008 0.085683493313 0.050602764216 0.465531838377 -0.757882415150
1.668722000000 0.431330012107 -0.747398949265 0.083652011821 0.052346865685 0.083241468970 0.054046850102 0.458278905153 -0.759771208995
1.680720000000 0.423692206327 -0.749016476039 0.082123044999 0.056177245165 0.081559024445 0.057934679639 0.449905099424 -0.760575575996
1.692718000000 0.414723654985 -0.751080085023 0.081381856392 0.060448658752 0.080685310854 0.062339168231 0.442453223043 -0.763213981456
1.704716000000 0.406267663889 -0.753756328606 0.081365520511 0.065404472058 0.080722558173 0.067286671425 0.434425371342 -0.764461685305
1.716714000000 0.398630121169 -0.757360920266 0.082321345549 0.070576735663 0.081998485098 0.072292807959 0.424644851405 -0.766386660394
1.728712000000 0.390667709647 -0.762129416634 0.084719551819 0.075740221132 0.084576367319 0.077487223654 0.416324965715 -0.769057749330
