# GHZ S RI R 50.000000000000
0.001000000000 -0.994369461401 0.038733186721 0.002918654432 0.032874129854 0.000047673413 0.031699156655 -0.992912651184 0.028284389191
0.001998000000 -0.992291012937 0.097875237798 0.003044184195 0.060599989727 0.003357008503 0.060891653146 -0.985850368249 0.090722560034
0.002996000000 -0.988894811677 0.131697722447 0.006862243101 0.089055614450 0.007210884131 0.089294762039 -0.984664468050 0.124489902366
0.003994000000 -0.984461091666 0.161364617189 0.012959591398 0.117697628378 0.013078901668 0.117765886049 -0.981621901072 0.154117077423
0.004992000000 -0.977735459701 0.189469450820 0.021176794993 0.146334806429 0.021091945170 0.146230778075 -0.976280870079 0.181630551273
0.005990000000 -0.968700827801 0.216216894579 0.031737144946 0.174619264841 0.031318218854 0.174261195811 -0.968380060021 0.207810393264
0.006988000000 -0.956384596226 0.241503033947 0.044140574236 0.202196098331 0.043567651064 0.201574823436 -0.957204835098 0.233369705639
0.007986000000 -0.942240335335 0.265509610620 0.058530262536 0.229134457602 0.057597906976 0.228488433547 -0.944368547394 0.256946390614
0.008984000000 -0.925576486857 0.288375898135 0.074890625944 0.255040108899 0.073615793589 0.254251134537 -0.928312600103 0.279680483289
0.009982000000 -0.906587461524 0.309507603487 0.092665205801 0.279952796579 0.091198426138 0.278958743009 -0.910014274533 0.300754599050
0.010980000000 -0.886152875360 0.328998435118 0.111838134885 0.303558423870 0.110106861174 0.302627223266 -0.889974648647 0.320010378702
0.011978000000 -0.863490190117 0.346976664401 0.132487637882 0.325915773659 0.130432555269 0.324745162665 -0.867521662485 0.337941805953
0.012976000000 -0.839230710660 0.362799795334 0.154518522717 0.346312710537 0.151771749140 0.345425701498 -0.842612386206 0.353940115540
0.013974000000 -0.819859237561 0.383250248418 0.174456226536 0.364037361356 0.171271325446 0.363550826768 -0.824367334299 0.375378442462
0.014972000000 -0.799906670179 0.401789528441 0.194533407985 0.380254472021 0.191129933311 0.380085571725 -0.805387906189 0.394465429925
0.015970000000 -0.779791533134 0.418338723687 0.214849212991 0.395220581947 0.211465601837 0.395265274007 -0.786184236814 0.411808863414
0.016968000000 -0.759103897060 0.433088094372 0.235269228016 0.409031410220 0.231810677881 0.409256547801 -0.766051127791 0.427097078930
0.017966000000 -0.738335969592 0.446268559641 0.255828527741 0.421466581931 0.252370845990 0.421903703671 -0.745750561549 0.440614190014
0.018964000000 -0.717113490342 0.457705802501 0.276660633485 0.432490233032 0.273160962428 0.433261196040 -0.724800507380 0.452492960564
0.019962000000 -0.695723711988 0.467520167972 0.297223161806 0.442449749646 0.293795832745 0.443320106458 -0.703551058819 0.462555111136
0.020960000000 -0.674157861050 0.475913900751 0.317746851700 0.451134990580 0.314426724898 0.452147063903 -0.681879991507 0.471165251789
0.021958000000 -0.652679345651 0.482561817675 0.338141734356 0.458857685442 0.334772415014 0.459818417278 -0.659778682956 0.478318269473
0.022956000000 -0.630933823370 0.488300253824 0.358276880116 0.465284079998 0.355044884196 0.466404521218 -0.637899474958 0.483636509443
0.023954000000 -0.609593568733 0.492262638559 0.378037136467 0.470695435232 0.374863027646 0.471882059807 -0.615794663053 0.487607108960
0.024952000000 -0.588558995974 0.494798750272 0.397419898448 0.475181838185 0.394098484644 0.476653510469 -0.593808342436 0.490430208415
0.025950000000 -0.570952350589 0.503609324993 0.415681113591 0.483497496296 0.412932131030 0.483971595023 -0.577237212855 0.499137097522
0.026948000000 -0.552231396738 0.506978260958 0.434600789212 0.486047565755 0.431797321557 0.486830992425 -0.558709536650 0.503560244818
0.027946000000 -0.533982126458 0.509260670735 0.452985633480 0.487653074262 0.450171034298 0.488680645639 -0.540362089615 0.506841662610
0.028944000000 -0.515953893028 0.510503987961 0.471042605332 0.488259384036 0.468096642574 0.489646366708 -0.522522062760 0.509037916358
0.029942000000 -0.497891271303 0.510930025759 0.488891528225 0.487897139582 0.485880790641 0.489985472252 -0.504365393974 0.509910389558
0.030940000000 -0.479516774008 0.510607432200 0.506043745732 0.487969088560 0.503343288003 0.489936399155 -0.485636908604 0.510271634067
0.031938000000 -0.462505879442 0.510994236846 0.522365607237 0.488146736142 0.519812298603 0.490340697842 -0.468149670407 0.511295875010
0.032936000000 -0.446078229497 0.509591543255 0.537787088927 0.487710656042 0.535442401250 0.489960437556 -0.451276662850 0.510087328226
0.033934000000 -0.429893032873 0.507695841325 0.552654618190 0.487226908764 0.550882351384 0.489048249089 -0.434556754435 0.508275057304
0.034932000000 -0.413947823934 0.505432309187 0.567316973483 0.486268471038 0.565794128594 0.488071275922 -0.418110988688 0.505863912635
0.035930000000 -0.398539598969 0.502558169896 0.581515198405 0.484727034086 0.579863631073 0.486607223361 -0.402024070434 0.502590946961
0.036928000000 -0.383332783165 0.498942255795 0.595411426114 0.482694434213 0.594025266640 0.484403494934 -0.386191324764 0.498857285959
0.037926000000 -0.370023571531 0.497438586235 0.609000832208 0.480217020961 0.607696729619 0.482045874990 -0.373242952081 0.497977265618
0.038924000000 -0.357209303125 0.495120925888 0.621795931261 0.477417985262 0.620809902873 0.479225094625 -0.360484623769 0.496697540107
0.039922000000 -0.344703639358 0.492278669890 0.634311642837 0.474247373426 0.633453837607 0.475939161992 -0.347996457052 0.494323797259
0.040920000000 -0.332382559725 0.488959289656 0.646700184946 0.470714225109 0.645935850864 0.472191923925 -0.335812486085 0.491395227332
0.041918000000 -0.320478805970 0.485246698833 0.658512061584 0.466829273993 0.657828882894 0.468383642530 -0.323898059423 0.487988011639
0.042916000000 -0.309001494253 0.480921052456 0.670030634817 0.462728244110 0.669491577565 0.464525576808 -0.312178718858 0.483917638850
0.043914000000 -0.297702497706 0.476247342044 0.681022294073 0.458148274929 0.680430152608 0.460068963553 -0.300743391288 0.479283562691
0.044912000000 -0.286800225171 0.471194257496 0.691414105108 0.453582586780 0.691071972757 0.455643625614 -0.289611770615 0.474140525473
0.045910000000 -0.276285432653 0.465840058052 0.701576862089 0.449089357736 0.701193981269 0.451173008712 -0.278744887118 0.468674504037
0.046908000000 -0.266136777969 0.460194413910 0.711334604118 0.444773785969 0.710824629920 0.446392009940 -0.268286002394 0.462825846176
0.047906000000 -0.256457819717 0.454192650780 0.720812895927 0.439781709191 0.720562772050 0.441472327001 -0.258273239115 0.456611088715
0.048904000000 -0.246912715085 0.448177043960 0.730011209701 0.435045817009 0.729544227228 0.436979926380 -0.248523792713 0.450054237485
0.049902000000 -0.238331405520 0.444001750066 0.738867777114 0.430027504754 0.738503899993 0.432210246457 -0.240145456872 0.446294071681
0.050900000000 -0.230029307746 0.439747130831 0.747552447761 0.425165801609 0.747113199801 0.427139809721 -0.231938485390 0.442362331768
0.051898000000 -0.222221817020 0.435132113055 0.755584892478 0.420363848998 0.755250062128 0.422297867631 -0.224037515637 0.438537726336
0.052896000000 -0.214554929168 0.430526267799 0.763419459438 0.415424124017 0.763180957083 0.417412166045 -0.216456108080 0.433899324169
0.053894000000 -0.207120800582 0.425677262643 0.770853089636 0.410496264450 0.770702823125 0.412622071403 -0.209124867978 0.429224613821
0.054892000000 -0.199921193036 0.420689878112 0.778293313095 0.405532457354 0.777965633610 0.407690739024 -0.201957183919 0.424299305109
0.055890000000 -0.193249456729 0.415538386558 0.785078327042 0.400854883044 0.785142591444 0.402528517162 -0.195044840975 0.419141666075
0.056888000000 -0.186586820640 0.410288548290 0.791958582066 0.395702807963 0.792074120313 0.397525493444 -0.188362075734 0.413632351025
0.057886000000 -0.180237679911 0.404815552783 0.798095391093 0.391022988939 0.798342543360 0.392810350920 -0.181832296299 0.408008184887
0.058884000000 -0.173883795705 0.399032874510 0.804451192109 0.385704800420 0.804803042298 0.387539309330 -0.175524596495 0.401916869049
0.059882000000 -0.167932742010 0.393044033893 0.810532628419 0.380578587439 0.810684971281 0.382709526080 -0.169123663129 0.395523049399
0.060880000000 -0.161458064719 0.386439008305 0.816194072935 0.375335649648 0.816596845916 0.377424693853 -0.162351811928 0.388666425104
0.061878000000 -0.154226514817 0.382008057028 0.822192251114 0.369642280810 0.822513751617 0.372234187755 -0.155152743367 0.384402218356
0.062876000000 -0.148403276013 0.378929577725 0.827624644519 0.365852965087 0.828069244308 0.368263845027 -0.149277565986 0.381671441848
0.063874000000 -0.143991649375 0.374670532309 0.833009193175 0.361385578314 0.833216120939 0.363523585935 -0.145017219243 0.377717473654
0.064872000000 -0.139285040466 0.369959895368 0.838153422178 0.356430585858 0.838335347751 0.358794346956 -0.140342884546 0.373197396378
0.065870000000 -0.134772473836 0.364967442207 0.843057969633 0.351582811082 0.843257804482 0.354010758788 -0.135608177083 0.368376232904
0.066868000000 -0.130131011607 0.360037320432 0.847759570356 0.346643773169 0.847733944374 0.349112690406 -0.131058516224 0.363364985150
0.067866000000 -0.125700077179 0.354985118346 0.852278088298 0.342003039032 0.852385063103 0.344403386947 -0.126566881422 0.358198045949
0.068864000000 -0.121420887085 0.349775065875 0.856460752211 0.337439107538 0.856987160913 0.339818124622 -0.122144410123 0.352887262913
0.069862000000 -0.117122095726 0.344546022289 0.860659856057 0.332806224727 0.861147971607 0.335502676731 -0.117922873461 0.347434051011
0.070860000000 -0.113055071664 0.339381322985 0.864696652602 0.328618021367 0.865268146459 0.330683479074 -0.113461170784 0.341979992318
0.071858000000 -0.109177422927 0.333932688440 0.868710892005 0.324044728411 0.869245054588 0.326117089726 -0.109239838796 0.336243152314
0.072856000000 -0.105209025157 0.328810013705 0.872641689952 0.319800637210 0.872627021017 0.321854130280 -0.105072572072 0.330583525424
0.073854000000 -0.101631352660 0.324579377312 0.876060571641 0.315512113875 0.876544039743 0.317457928934 -0.101413277148 0.326781500239
0.074852000000 -0.098165332503 0.320566830874 0.879527172688 0.311136602773 0.880312529805 0.313127908011 -0.098139508864 0.322952362646
0.075850000000 -0.094612901001 0.316488621959 0.882839800457 0.306735141977 0.883686477356 0.308560629516 -0.094753172412 0.319225898391
0.076848000000 -0.091418842234 0.312341051756 0.886269818822 0.302518658680 0.887172040536 0.304305073605 -0.091464072264 0.315183181652
0.077846000000 -0.088431825361 0.308101881117 0.889646999832 0.298340385645 0.890378952792 0.299942773004 -0.088129065272 0.311037931494
0.078844000000 -0.085242761656 0.303796593588 0.892925293955 0.293951947004 0.893685213837 0.295677637895 -0.085051121390 0.306750983120
0.079842000000 -0.082285488720 0.299396252981 0.895687487453 0.289947433103 0.896382127118 0.291829781458 -0.082008040178 0.302327352645
0.080840000000 -0.079442844877 0.295068686813 0.898738542225 0.286005154341 0.899165483369 0.287828990552 -0.078837561460 0.297664969037
0.081838000000 -0.076558398241 0.290509548878 0.901476878224 0.282220293547 0.902316125631 0.283555611152 -0.075883168289 0.293116598451
0.082836000000 -0.073804324241 0.285995454534 0.904178908421 0.278458790910 0.905001592456 0.279971960879 -0.072974857075 0.288349219996
0.083834000000 -0.071035954808 0.281390220118 0.907076984649 0.274242676342 0.908009853227 0.275908760033 -0.069998861562 0.283540105719
0.084832000000 -0.068398939790 0.276841162206 0.909655098252 0.270735960778 0.909986397756 0.272005429855 -0.067143362508 0.278562315024
0.085830000000 -0.065915969695 0.273172332900 0.911858664145 0.266782502108 0.912862613941 0.267761069596 -0.064628161335 0.275161194265
0.086828000000 -0.063566154926 0.269639368583 0.914508667694 0.262971447869 0.915289624883 0.264231926563 -0.062323254752 0.271804336968
0.087826000000 -0.061433385191 0.266060664478 0.916615626922 0.259112911633 0.917978707874 0.260528891684 -0.060129616473 0.268416859498
0.088824000000 -0.059300631959 0.262397224113 0.918891756073 0.255683391302 0.919879412888 0.256847316392 -0.057863700520 0.264835638687
0.089822000000 -0.057272912049 0.258618680221 0.921122280985 0.252168201374 0.922308070367 0.253033980125 -0.055748124173 0.261231658628
0.090820000000 -0.055146383436 0.254832092561 0.923379118485 0.248279306401 0.924705684684 0.249558365221 -0.053620953634 0.257446803294
0.091818000000 -0.053236404355 0.250975002914 0.925364084337 0.244876982209 0.926500455523 0.245829364795 -0.051430323697 0.253450685314
0.092816000000 -0.051156189600 0.247048758568 0.927346864820 0.241155983309 0.928616140832 0.242304372183 -0.049363801591 0.249550886948
0.093814000000 -0.049228226496 0.243180050017 0.929479508730 0.237883435938 0.930633124463 0.239055913570 -0.047492286232 0.245451108873
0.094812000000 -0.047226252777 0.239201715952 0.931483314430 0.234582603447 0.932523096102 0.235557606467 -0.045448720758 0.241250647901
0.095810000000 -0.045444546439 0.235152965680 0.933160158818 0.231271130973 0.934730174980 0.231910071916 -0.043460442691 0.237011111189
0.096808000000 -0.043508140565 0.231137089257 0.935246281114 0.228055463862 0.936322479746 0.228989515408 -0.041595845569 0.232702786482
0.097806000000 -0.042024320781 0.227939125096 0.936941067098 0.225039289666 0.937820456752 0.225680103359 -0.039793002316 0.229549877239
0.098804000000 -0.040453175387 0.224764767946 0.938829898190 0.221643587351 0.939807977894 0.221793599961 -0.038261091947 0.226616669638
0.099802000000 -0.038986105393 0.221648711974 0.940434106716 0.217988043477 0.941299552878 0.218703568347 -0.036572538559 0.223538220552
0.100800000000 -0.037416133028 0.218309489856 0.942110068719 0.214838440714 0.943013897461 0.215560667400 -0.034962061611 0.220435186080
0.101798000000 -0.036088284294 0.215099397999 0.943788107237 0.211815102072 0.944633957205 0.212161993930 -0.033565290930 0.217041249044
0.102796000000 -0.034585532820 0.211725697857 0.945228919660 0.208361029199 0.945970596827 0.209256625843 -0.032120244977 0.213715958651
0.103794000000 -0.033323871932 0.208267747831 0.946846438065 0.205447919240 0.947521667990 0.205867731860 -0.030721479886 0.210225217156
0.104792000000 -0.031964590197 0.204863765746 0.948335301282 0.202684107174 0.949032076479 0.203297585558 -0.029674046994 0.206622960670
0.105790000000 -0.030690361846 0.201417097482 0.949762415281 0.199695817694 0.950558925859 0.200095315641 -0.028240607945 0.203022838103
0.106788000000 -0.029246565716 0.197837971438 0.950985986525 0.196614331538 0.951703123151 0.197466784440 -0.026930986362 0.199315593710
0.107786000000 -0.027986601829 0.194324893124 0.952455500509 0.193857058010 0.953163987892 0.194266191418 -0.025484083814 0.195539290722
0.108784000000 -0.026720513846 0.190743336623 0.953762115649 0.190701598104 0.954298268474 0.191497164873 -0.024244194131 0.191672393183
0.109782000000 -0.025632640519 0.187747341320 0.955001604420 0.187830055916 0.955424959388 0.188820433185 -0.022951357214 0.188873349981
0.110780000000 -0.024641463180 0.184962243586 0.956262841293 0.185357994866 0.956978936342 0.185897089401 -0.021934574464 0.186228563439
0.111778000000 -0.023541770589 0.182170116098 0.957330120696 0.182282647874 0.958252113931 0.182638266832 -0.020892663429 0.183455926252
0.112776000000 -0.022571074780 0.179212226574 0.958283225158 0.179387796585 0.959675689899 0.179547496294 -0.019942002815 0.180638322425
0.113774000000 -0.021651145360 0.176278433534 0.959345420285 0.176516276885 0.960698659111 0.176482372851 -0.018942383715 0.177624611791
0.114772000000 -0.020750656608 0.173314188312 0.960615496299 0.173724403135 0.961759634941 0.174048917655 -0.018088229069 0.174662265598
0.115770000000 -0.019742314056 0.170270560964 0.961747105021 0.171141638137 0.962963686265 0.171476557225 -0.017171021685 0.171539671793
0.116768000000 -0.018989464051 0.167173400821 0.962881230487 0.168489697167 0.963975021058 0.168724559859 -0.016150447530 0.168390756871
0.117766000000 -0.017944886213 0.164011678106 0.963703863965 0.165470761880 0.964852085656 0.166458385818 -0.015192278757 0.165107112732
0.118764000000 -0.017120263105 0.160969377279 0.964844914013 0.162879978710 0.965596684820 0.163251666761 -0.014237897548 0.161785140435
0.119762000000 -0.016239987436 0.157754175809 0.965887394517 0.160374630762 0.966793714223 0.160478007557 -0.013314589951 0.158383174250
0.120760000000 -0.015441256159 0.154601818089 0.966916740097 0.157466572563 0.967658472565 0.157489846667 -0.012417031302 0.155064292562
0.121758000000 -0.014671773999 0.151971915535 0.967799930777 0.154928175032 0.968618132823 0.155104964827 -0.011613998834 0.152458414510
0.122756000000 -0.013965528177 0.149363502669 0.968761026026 0.152543065097 0.969662194159 0.152585358333 -0.010855091376 0.150026382665
0.123754000000 -0.013266837200 0.146775915871 0.969650278757 0.149941195856 0.970337379034 0.150062193000 -0.010195018976 0.147464518912
0.124752000000 -0.012649637253 0.144145589869 0.970474298414 0.147340281179 0.971372341226 0.147246508548 -0.009518816164 0.144893155825
0.125750000000 -0.011633526177 0.140759382640 0.970312464424 0.143884642902 0.976215900864 0.145660938534 -0.008962450233 0.143523363021
0.126748000000 -0.011380694953 0.138870069981 0.972038695866 0.142479173834 0.972979517562 0.141990171264 -0.008090047631 0.139614063568
0.127746000000 -0.010844950320 0.136123333381 0.972836053069 0.139709390823 0.973788064099 0.139515179105 -0.007624669647 0.136833156181
0.128744000000 -0.010275312105 0.133303831596 0.973742151130 0.137155665284 0.974542112988 0.136911800669 -0.007017658357 0.134010163154
0.129742000000 -0.009770060304 0.130502372882 0.974546795746 0.134495637751 0.975426742193 0.134456074429 -0.006361940834 0.130975771259
0.130740000000 -0.009179071411 0.127718377694 0.975271537594 0.132121144292 0.975952161861 0.132093075683 -0.005888836528 0.128157575114
0.131738000000 -0.008599534661 0.124904403403 0.976126528583 0.129853991243 0.976724868449 0.129636690287 -0.005369168680 0.125115881213
0.132736000000 -0.008119060455 0.121978082991 0.976687529911 0.127813456017 0.977495496694 0.127404233739 -0.004712705207 0.122015300028
0.133734000000 -0.007654188827 0.119639861194 0.977891024827 0.125185618982 0.977933998627 0.124804196313 -0.004217506684 0.119608642940
0.134732000000 -0.007307261016 0.117244139509 0.978613442591 0.122912778263 0.978731137062 0.122254631412 -0.003755641078 0.117351465272
0.135730000000 -0.006825655091 0.114870949299 0.979216633744 0.120363943704 0.979576012490 0.120063639272 -0.003325605188 0.115072518038
0.136728000000 -0.006385281243 0.112531545035 0.979801373103 0.118032639778 0.980047276292 0.117724272037 -0.002967718542 0.112765442205
0.137726000000 -0.006000457027 0.110075077357 0.980481140131 0.115598887221 0.980625245693 0.115442870349 -0.002516589802 0.110319250350
0.138724000000 -0.005680045237 0.107734742711 0.980910963219 0.113262760882 0.981364351853 0.112930079992 -0.002142377286 0.107854546369
0.139722000000 -0.005410102638 0.105147852035 0.981617401934 0.111244352274 0.981803387597 0.111038581895 -0.001779956908 0.105199011702
0.140720000000 -0.005081586650 0.102586536824 0.982113308522 0.108858471239 0.982497416855 0.108818664183 -0.001525981437 0.102686188371
0.141718000000 -0.004780740259 0.100038920064 0.982876267004 0.106653040767 0.982994129424 0.106508017449 -0.001196798024 0.100049900989
0.142716000000 -0.004528172223 0.097606653838 0.983546152758 0.104241515363 0.983683519564 0.104069179660 -0.000955976170 0.097421031112
0.143714000000 -0.004238410217 0.095121694234 0.984057514231 0.102186120474 0.984263996329 0.101549413034 -0.000632773434 0.094740931456
0.144712000000 -0.003949151817 0.092454593960 0.984563597543 0.099845833163 0.984637861929 0.099571737847 -0.000391983418 0.091976232369
