# GHZ S RI R 50.000000000000
0.001000000000 0.001001677922 0.005953540442 1.002407720533 -0.007691862465 0.998095790354 -0.010540459975 0.002593796986 0.005714346501
0.002998000000 0.001030053388 0.020116696544 1.000428863641 -0.026161423463 0.998841650788 -0.026371165988 0.001559256742 0.019404352160
0.004996000000 0.002498667033 0.033022052181 0.999521346241 -0.043620320606 0.998429584158 -0.044094300779 0.003238254688 0.032501342659
0.006994000000 0.004336981293 0.045424759828 0.998013252767 -0.061886955506 0.996675512081 -0.062494777025 0.005586220115 0.045074732214
0.008992000000 0.006743445530 0.057152385936 0.995433496344 -0.081090916086 0.994759213023 -0.081158648434 0.008297358865 0.056854727438
0.010990000000 0.009205199324 0.068195524236 0.992042614152 -0.100350751541 0.991481997612 -0.100815352094 0.011395546509 0.067918588755
0.012988000000 0.012468416236 0.078498330833 0.988282519557 -0.120215479242 0.987462517170 -0.120081994683 0.015164531756 0.078156813143
0.014986000000 0.016046066332 0.090234685249 0.984554267747 -0.138060583791 0.983849234387 -0.138648750318 0.019851856365 0.089858460991
0.016984000000 0.019867646444 0.102042468690 0.980368048447 -0.156096154408 0.979632844375 -0.156257417603 0.024842910047 0.101550754771
0.018982000000 0.023756388954 0.113707713801 0.975541969201 -0.173985158002 0.974917955958 -0.174145728544 0.029999250554 0.112894553577
0.020980000000 0.028058187210 0.125095229481 0.970063683775 -0.191313274638 0.969562140375 -0.191884367388 0.035483425395 0.123769278012
0.022978000000 0.032548849364 0.135926435430 0.964259711892 -0.209143195060 0.963926576556 -0.209297298572 0.041410139696 0.134155872797
0.024976000000 0.037154473614 0.146501616125 0.957784398663 -0.226439071278 0.957779838141 -0.226705398366 0.047531641124 0.143801151712
0.026974000000 0.042206353739 0.158915238015 0.950852547253 -0.245596171658 0.950999365221 -0.245230259829 0.053692331811 0.156309249688
0.028972000000 0.048313712394 0.169456599403 0.944285356691 -0.261731426871 0.944237878745 -0.260899055170 0.061911674191 0.165907135619
0.030970000000 0.054787276264 0.179224674086 0.936623841178 -0.277182860711 0.936532525495 -0.277756359178 0.070970064643 0.174511094968
0.032968000000 0.061081979361 0.189770036846 0.928907255466 -0.294047626979 0.928881539768 -0.294235814387 0.079049806099 0.184050443277
0.034966000000 0.066877318266 0.199565254765 0.919781965099 -0.310784977194 0.920600164552 -0.310616773327 0.086118681259 0.192598546373
0.036964000000 0.073167124862 0.208976712442 0.910905340646 -0.326596362239 0.911961801569 -0.326002432177 0.094048131093 0.200617016043
0.038962000000 0.080713534841 0.219794465030 0.901790445398 -0.341864899765 0.903086594631 -0.341083331999 0.104142821867 0.210518971193
0.040960000000 0.088376568483 0.230038546261 0.892277179690 -0.356897115135 0.893214665787 -0.356470482948 0.114438501072 0.219480606012
0.042958000000 0.096364987111 0.239538931784 0.882365595257 -0.371540894881 0.883589655617 -0.371121532391 0.124836775215 0.227496463797
0.044956000000 0.104289215626 0.248334290763 0.872104797412 -0.385886743988 0.873640216995 -0.385334298689 0.135140734253 0.234475277723
0.046954000000 0.112598261579 0.256582645081 0.862228457886 -0.399513726872 0.863244935629 -0.399248167112 0.145898862849 0.240494877196
0.048952000000 0.120973290806 0.264296202787 0.851423121196 -0.413245388827 0.852600011891 -0.413292854394 0.156537189006 0.245946516269
0.050950000000 0.130769879666 0.273186990407 0.840566669612 -0.426581388967 0.841607603229 -0.426436133386 0.169021062478 0.252898459735
0.052948000000 0.140334522243 0.281715526874 0.829203706780 -0.438903809454 0.830434347053 -0.439084354266 0.181712389186 0.259262283066
0.054946000000 0.149786711657 0.289885746275 0.817725809093 -0.451353487934 0.819091175851 -0.451027046460 0.194154037774 0.264842353068
0.056944000000 0.159304337162 0.297528571968 0.805891829659 -0.463700598145 0.807363068119 -0.463699247116 0.206073720525 0.269664197240
0.058942000000 0.168916965239 0.304023530288 0.793856663794 -0.475071397453 0.795604464880 -0.475230856255 0.218202036304 0.272752064427
0.060940000000 0.178871381035 0.307992977845 0.781504640047 -0.485142334764 0.783128800014 -0.485656178487 0.230571851151 0.272881673651
0.062938000000 0.190289093958 0.315968211365 0.768134232706 -0.497474547590 0.769777063474 -0.498071377152 0.244649584611 0.277928259921
0.064936000000 0.201618448540 0.322789245727 0.756437022381 -0.507686692327 0.757708832364 -0.508040982830 0.259085907155 0.281528011720
0.066934000000 0.212311756877 0.328331375244 0.743421943993 -0.517355421159 0.744737055266 -0.518035309029 0.272415865053 0.283575262524
0.068932000000 0.222831269824 0.333112243531 0.730076619494 -0.526504326392 0.731663614005 -0.527397633259 0.284914653727 0.284803107739
0.070930000000 0.233011976885 0.337285271915 0.717110134825 -0.535727561158 0.718406318213 -0.536589113849 0.297033480391 0.284808464336
0.072928000000 0.243027401107 0.340751446603 0.703835463569 -0.544419661451 0.705130082992 -0.545020361642 0.308465756330 0.283935532669
0.074926000000 0.254716199744 0.346210363829 0.690810391462 -0.552403507834 0.692079832249 -0.553842054329 0.323127087065 0.285710015307
0.076924000000 0.266419256616 0.351028368276 0.677615692081 -0.560340157722 0.678787368103 -0.561825692170 0.337508635053 0.286467331437
0.078922000000 0.277773529904 0.355135145205 0.663980283547 -0.568063956711 0.664823553420 -0.569597917563 0.351218045393 0.286288391913
0.080920000000 0.289045839797 0.358227659303 0.650332638589 -0.575273951041 0.651335555545 -0.576654318304 0.364249086726 0.284903124732
0.082918000000 0.299934801409 0.360432834110 0.636806913161 -0.582064860801 0.637535541727 -0.583694451393 0.376424122906 0.282096533787
0.084916000000 0.310596142408 0.361771022250 0.623295294919 -0.588401153201 0.623610141279 -0.590174875660 0.388097414450 0.278367455165
0.086914000000 0.323116138162 0.365543219135 0.609808432226 -0.594391928914 0.610041450289 -0.596567978218 0.403215134912 0.277259811412
0.088912000000 0.335344113488 0.368574613892 0.596386221824 -0.599872810223 0.596361786969 -0.602297707604 0.417867579567 0.275466225639
0.090910000000 0.347051450839 0.370848861070 0.582720967832 -0.605242433727 0.582978536440 -0.607582341039 0.431695869490 0.272372713432
0.092908000000 0.358418714244 0.372058020363 0.569191346970 -0.610189674783 0.569287093595 -0.612327987206 0.444263747684 0.268265178651
0.094906000000 0.369420666832 0.372190825996 0.555533181693 -0.614818414492 0.555360981167 -0.616872854862 0.455640239731 0.263005827234
0.096904000000 0.380016898242 0.371603039015 0.542193426749 -0.618992893512 0.541788968822 -0.621034078132 0.466264867774 0.256725120040
0.098902000000 0.392905329925 0.373694752465 0.528662555532 -0.623248229775 0.527745252402 -0.625341810415 0.481313402556 0.252874393769
0.100900000000 0.405359711039 0.375046755112 0.514999395323 -0.626863961526 0.514243605628 -0.629059480552 0.495788430554 0.248326016464
0.102898000000 0.417244693715 0.375318655925 0.501744859839 -0.629998190690 0.500869608987 -0.632334073302 0.508942120943 0.243033455394
0.104896000000 0.428412226957 0.374665399721 0.488560795735 -0.632962476841 0.487459252581 -0.635264665845 0.520157359297 0.237368817119
0.106894000000 0.439072869760 0.372977489753 0.475375115694 -0.635469322230 0.474041469322 -0.637470306724 0.530412562105 0.229474736629
0.108892000000 0.449326482617 0.370233596792 0.462238500503 -0.637895051349 0.460547169168 -0.639359325719 0.539481964836 0.220734465061
0.110890000000 0.462032048255 0.370660124933 0.449576760980 -0.639535522527 0.447989328587 -0.641391915272 0.553826678597 0.214720640464
0.112888000000 0.474665652959 0.370095598394 0.435922951662 -0.641326471682 0.434166257566 -0.643541759885 0.567637866305 0.207797290910
0.114886000000 0.486272999233 0.368989999297 0.423071965092 -0.642802390097 0.421249518750 -0.644945015189 0.579553634279 0.200573298899
0.116884000000 0.497055900315 0.366566631303 0.410338298334 -0.643850425104 0.408283471988 -0.645776684506 0.589835104182 0.192077472997
0.118882000000 0.506957418028 0.363191235739 0.397931068183 -0.644629827643 0.395376326214 -0.646318843052 0.598530165737 0.182336633784
0.120880000000 0.516482343141 0.358748255740 0.385311381902 -0.645412427242 0.382764623791 -0.646675800661 0.605808190865 0.171831432510
0.122878000000 0.529224017325 0.357251327958 0.372879010816 -0.645715609151 0.369986877055 -0.647080855293 0.619215338044 0.163149635661
0.124876000000 0.541432111918 0.355334017955 0.360491584030 -0.645777921124 0.357519430959 -0.647238769234 0.631699388742 0.154440099566
0.126874000000 0.552768173301 0.352291284658 0.348200591475 -0.645696138930 0.345055486515 -0.646679274156 0.642455659191 0.144331964734
0.128872000000 0.562776712897 0.348534656774 0.335858358531 -0.645348225269 0.332894843837 -0.646034375911 0.650937569598 0.134355777924
0.130870000000 0.571897203802 0.343684526859 0.323809445500 -0.644771539106 0.320802780500 -0.645113099476 0.657536324283 0.123398297949
0.132868000000 0.580296984767 0.338021376653 0.312212929491 -0.644203211965 0.309261671799 -0.643901664359 0.662778904971 0.111693657112
0.134866000000 0.592640841957 0.334935767886 0.300477816029 -0.643318204429 0.297177153621 -0.642768310418 0.674743651072 0.100916002373
0.136864000000 0.604413649988 0.331477313248 0.288995304458 -0.641900005058 0.285697364238 -0.641187246559 0.685793320330 0.090250751177
0.138862000000 0.614914274197 0.327297537438 0.277624476798 -0.640254831640 0.274200641423 -0.639662468842 0.694787553052 0.079310931571
0.140860000000 0.624210283952 0.322154902654 0.266061706101 -0.638703784695 0.263068884246 -0.637698724967 0.701561369906 0.068036593010
0.142858000000 0.632159171215 0.316300401394 0.254990672613 -0.637094014788 0.252040831194 -0.635562550160 0.706049897391 0.056376584739
0.144856000000 0.639349673683 0.309447388439 0.243737283331 -0.635140746247 0.241355421581 -0.633303396488 0.709036060861 0.043860282668
0.146854000000 0.651164915585 0.305106623561 0.232968707755 -0.632802850517 0.230304712844 -0.630895133642 0.719572221035 0.031835314391
0.148852000000 0.662215150176 0.300336664072 0.222179471705 -0.630313904826 0.219353602804 -0.628325824017 0.729021959747 0.019685017475
0.150850000000 0.672082483905 0.295018248585 0.211821165378 -0.627547332017 0.209119951724 -0.625356749984 0.736325456031 0.007792089937
0.152848000000 0.680370445265 0.288793621990 0.201415025043 -0.624849003891 0.198991575622 -0.622304426491 0.741372737634 -0.004720528054
0.154846000000 0.687365699537 0.281816183197 0.190959940025 -0.622111585195 0.188910757779 -0.619266486615 0.744116701571 -0.017085978729
0.156844000000 0.693147925046 0.274150844827 0.180579498861 -0.619206684011 0.179000200984 -0.616144835096 0.744885597600 -0.029564528899
0.158842000000 0.704279339457 0.268253145236 0.170449186038 -0.615837097886 0.169272854453 -0.612693893263 0.753314402200 -0.043882175004
0.160840000000 0.714592603364 0.262099780622 0.160483416044 -0.612380982810 0.159241073883 -0.608997832170 0.760876993615 -0.056973303754
0.162838000000 0.723525595830 0.255675861712 0.150573673554 -0.608941884409 0.149746623758 -0.605384775737 0.766262938904 -0.069798399507
0.164836000000 0.730737040970 0.248334598746 0.140672439524 -0.605417083410 0.140435316392 -0.601447017256 0.769197436290 -0.082554003406
0.166834000000 0.736461896798 0.240401165804 0.130731842044 -0.601433504766 0.131097076313 -0.597813895119 0.769897219578 -0.095409869003
0.168832000000 0.741316527062 0.231597142525 0.120606908276 -0.597664785085 0.121816747041 -0.593859411319 0.768626682271 -0.108164587459
0.170830000000 0.751209561264 0.224081312754 0.111180892525 -0.593372347393 0.112729065491 -0.589404991143 0.774647796281 -0.122851704306
0.172828000000 0.760687655515 0.216900440668 0.101947058208 -0.589289943348 0.103526709279 -0.584962539569 0.780336996020 -0.137143018356
0.174826000000 0.768429921569 0.209437466326 0.092716564704 -0.584882049593 0.094940705303 -0.580657156600 0.783668156271 -0.150808940321
0.176824000000 0.774540835492 0.201322406509 0.083341602138 -0.580320440080 0.085871738618 -0.576143187184 0.784657640991 -0.164188081244
0.178822000000 0.779122438008 0.192947438531 0.074183282166 -0.575539357707 0.077431920027 -0.571585994632 0.783509879778 -0.176659742213
0.180820000000 0.782377058993 0.183967050147 0.065063662725 -0.570570471458 0.068883351695 -0.567017544109 0.780499426850 -0.189128377982
0.182818000000 0.790943161742 0.175984602030 0.056325476458 -0.565518769928 0.060534983118 -0.561892727117 0.784736602755 -0.203545116203
0.184816000000 0.799377293604 0.168307307817 0.048187611320 -0.560109988620 0.052460120866 -0.556571664649 0.788645977504 -0.217835508571
0.186814000000 0.806310976598 0.160109054712 0.040232882362 -0.554934345124 0.044947353729 -0.551416913229 0.790193863151 -0.231451795368
0.188812000000 0.811508593505 0.151418347869 0.032230765071 -0.549393257569 0.037347919205 -0.546519058365 0.789704289643 -0.244527716059
0.190810000000 0.815008046973 0.142477262915 0.024210121693 -0.543820621639 0.029805694784 -0.541476423046 0.786764313107 -0.256926661191
0.192808000000 0.817534159190 0.133319665687 0.016363472318 -0.538151633276 0.022494179631 -0.536337380040 0.782301902877 -0.268987761514
0.194806000000 0.825173724972 0.124139412447 0.008803217259 -0.532560322936 0.015160767087 -0.530771526526 0.784285109362 -0.284369200374
0.196804000000 0.832420091309 0.115349221836 0.001439325458 -0.526698499799 0.008319675511 -0.525020235350 0.785974732078 -0.299015339026
0.198802000000 0.837872379617 0.106653108226 -0.005646758990 -0.520657524369 0.001347351413 -0.519403014091 0.785808586064 -0.312584175015
0.200800000000 0.841824231382 0.098078686086 -0.012611612429 -0.514598939097 -0.005455468117 -0.513499758035 0.783508016242 -0.324860766258
0.202798000000 0.844043471208 0.089235979578 -0.019601790508 -0.508185200623 -0.012023806075 -0.508002345358 0.779525183734 -0.336127393597
0.204796000000 0.845312224679 0.080273063591 -0.026098375975 -0.501757870211 -0.018621332306 -0.502175406292 0.773841645791 -0.346808183799
0.206794000000 0.851504335699 0.070902096405 -0.032465837106 -0.495397104742 -0.024779446411 -0.495834380930 0.774356727025 -0.360895261767
0.208792000000 0.857588243467 0.061759076064 -0.038462798196 -0.488964281329 -0.030615009458 -0.489700915825 0.774775880585 -0.374692001484
0.210790000000 0.862326193497 0.052601723369 -0.044406859954 -0.482574857610 -0.036354853662 -0.483514589782 0.773099291023 -0.387529836395
0.212788000000 0.864898828662 0.043946489849 -0.050014798591 -0.475777466438 -0.042058033846 -0.477318834728 0.769787435829 -0.399050279535
0.214786000000 0.866423411293 0.035291444991 -0.055538216988 -0.468981555028 -0.047314597547 -0.471039373405 0.764606763376 -0.409288601578
0.216784000000 0.866552561134 0.026637076452 -0.060700203269 -0.462101864997 -0.052775896714 -0.464952721800 0.757902653982 -0.419395138272
0.218782000000 0.871602747069 0.017169475302 -0.065656289884 -0.455294920187 -0.057665836851 -0.458457397632 0.756987818594 -0.433177024626
0.220780000000 0.876587679212 0.007834352545 -0.070465170623 -0.448616850124 -0.062502167903 -0.452042709707 0.756110132295 -0.446630710897
0.222778000000 0.880147401132 -0.001340394297 -0.075134876094 -0.441952224366 -0.067152820287 -0.445739297885 0.753113468676 -0.458995801725
0.224776000000 0.882182892271 -0.010237041920 -0.079476563759 -0.435112353185 -0.071693047314 -0.439449030513 0.748759625357 -0.470111466686
0.226774000000 0.882611440942 -0.018922926739 -0.083746018649 -0.428319940485 -0.076174110408 -0.433032915011 0.742358762577 -0.480091767527
0.228772000000 0.882230965847 -0.027339275374 -0.087665521715 -0.421546138500 -0.080446630527 -0.426548662163 0.734943239964 -0.489081065908
0.230770000000 0.886139602071 -0.036415446670 -0.091521774771 -0.414727141274 -0.084252534388 -0.420081675932 0.732658246829 -0.502274880374
0.232768000000 0.889820472555 -0.046119012804 -0.095393658873 -0.407865153194 -0.088106452069 -0.413573081167 0.730551585315 -0.515412350895
0.234766000000 0.892898104224 -0.055172761616 -0.098794903196 -0.401414262187 -0.091713650839 -0.407144160890 0.726754938132 -0.526963567512
0.236764000000 0.894013758486 -0.063755075162 -0.102067967608 -0.394606172382 -0.095155125509 -0.400662527153 0.721080226992 -0.537278548553
0.238762000000 0.893594579812 -0.072685407566 -0.105097227018 -0.387749483419 -0.098668461298 -0.394247592309 0.713629635300 -0.546614590815
0.240760000000 0.892184715629 -0.081440559991 -0.108130514685 -0.380959892941 -0.101949889447 -0.387843778814 0.705009227509 -0.555124094416
0.242758000000 0.895408293226 -0.090440546139 -0.110693239804 -0.374325459582 -0.104644629574 -0.381484821896 0.702024536097 -0.567765840739
0.244756000000 0.898590070513 -0.099367690379 -0.113314221266 -0.367844900125 -0.107469625632 -0.375162759803 0.699022731504 -0.580100182786
0.246754000000 0.900626592417 -0.108279151824 -0.115851073895 -0.361302331341 -0.110008962395 -0.368825261111 0.694378389056 -0.591059323968
0.248752000000 0.901046447883 -0.116996640030 -0.117895531028 -0.354829661354 -0.112495501355 -0.362434618982 0.688189772431 -0.600377421171
0.250750000000 0.899941443580 -0.125741178694 -0.119946111096 -0.348340185318 -0.114865673973 -0.356041187604 0.680108768850 -0.608263213108
0.252748000000 0.898127672267 -0.134055331466 -0.121658071433 -0.341913533839 -0.117213325567 -0.349798633627 0.671044642035 -0.615588279258
0.254746000000 0.900537884993 -0.143240180104 -0.123460826692 -0.335567450806 -0.119263256748 -0.343581099193 0.667130385089 -0.627493067662
0.256744000000 0.903142434811 -0.152111729808 -0.124962451124 -0.329429407344 -0.120977417063 -0.337490599807 0.663626333805 -0.639321609548
0.258742000000 0.904175150956 -0.160808747633 -0.126538104009 -0.323160456769 -0.122718273506 -0.331348716466 0.658126077751 -0.649499790443
0.260740000000 0.903806437621 -0.169178882419 -0.127941039091 -0.316979833497 -0.124306041408 -0.325241919846 0.651322312548 -0.658131479833
0.262738000000 0.902049709406 -0.177263671503 -0.129094389886 -0.310845212875 -0.125921061811 -0.319008044634 0.642725895148 -0.664987978329
0.264736000000 0.899433582862 -0.185448224797 -0.130178465848 -0.304774682710 -0.127373065275 -0.313039738124 0.632891193304 -0.671192150693
0.266734000000 0.901149994381 -0.194117861075 -0.131034948497 -0.298894386848 -0.128348849311 -0.307285982568 0.628751818039 -0.682264214307
0.268732000000 0.903138082369 -0.202861836796 -0.131814595110 -0.293148402873 -0.129318735354 -0.301475468738 0.624560119049 -0.693098714541
0.270730000000 0.903826629574 -0.211288782810 -0.132502008580 -0.287514155574 -0.130280060922 -0.295751234327 0.619247977018 -0.702349427805
0.272728000000 0.903032214421 -0.219119699091 -0.133346724227 -0.281637227184 -0.131365812173 -0.289944929673 0.610124030260 -0.711309455101
0.274726000000 0.900740016231 -0.226823206632 -0.133635746235 -0.276038534851 -0.132148003458 -0.284128658998 0.601058835659 -0.717288486516
0.276724000000 0.897878530279 -0.234615926999 -0.134017354253 -0.270470909737 -0.132911173302 -0.278478960781 0.591178708774 -0.722564729597
0.278722000000 0.899071537402 -0.243264369601 -0.134296639876 -0.265126822754 -0.133303634624 -0.273072800846 0.586529791628 -0.732886304701
0.280720000000 0.900335268704 -0.251692453949 -0.134505939529 -0.259825457041 -0.133664145824 -0.267771168415 0.582066676698 -0.742897813570
0.282718000000 0.900294255896 -0.259682837266 -0.134669747716 -0.254346705590 -0.133834626314 -0.262502674872 0.575820673961 -0.751634392243
0.284716000000 0.898866322550 -0.267152330093 -0.134688920328 -0.249041355952 -0.134115616911 -0.257066247463 0.568080752621 -0.758528730023
0.286714000000 0.896140469052 -0.274474847557 -0.134601358275 -0.243976949260 -0.134388159140 -0.251666357390 0.558196013909 -0.764051036517
