# GHZ S RI R 50.000000000000
0.001000000000 0.347818059804 -0.016287566148 0.688326758307 -0.020116279337 0.666620965302 -0.015579285204 0.343968841958 -0.016407481019
0.012998000000 0.323866595598 -0.017137124751 0.652123370445 -0.018780130258 0.652421535587 -0.016408837011 0.324308443013 -0.018173667412
0.024996000000 0.322734736773 -0.016060143879 0.651267062775 -0.014671246238 0.651329763963 -0.015276278197 0.323885614968 -0.016918184551
0.036994000000 0.322457193274 -0.017748743782 0.650968968302 -0.013461717703 0.651001660304 -0.014961183096 0.324059695365 -0.019585835950
0.048992000000 0.322459624561 -0.018058271350 0.651182487906 -0.011534153814 0.651143380360 -0.013109251238 0.324942650713 -0.020027128625
0.060990000000 0.322727795549 -0.017775962109 0.651679081201 -0.010313334964 0.651389488628 -0.011938465371 0.325875280033 -0.020111331396
0.072988000000 0.322890951569 -0.019193717879 0.651928731408 -0.008773053368 0.652039267519 -0.010872318814 0.326800416561 -0.021390926679
0.084986000000 0.323261797700 -0.020532737390 0.652774796684 -0.008098989047 0.652620088932 -0.010191931935 0.327886262721 -0.022786907396
0.096984000000 0.323748219241 -0.022195099544 0.653781933116 -0.007161630033 0.653568354753 -0.009356522024 0.329122305666 -0.024363469696
0.108982000000 0.324240068835 -0.024097424436 0.654806656742 -0.006210368932 0.654770210594 -0.008687119719 0.330312853225 -0.026096737055
0.120980000000 0.324775445278 -0.026332533646 0.655932621586 -0.005691246625 0.655874493111 -0.008023328518 0.331229342306 -0.028189565211
0.132978000000 0.325143384684 -0.028666065957 0.657163435408 -0.005611477018 0.657184757236 -0.008056406063 0.332016125494 -0.030426199975
0.144976000000 0.325565989440 -0.031094182100 0.658311625212 -0.005226589232 0.658469865099 -0.007978925159 0.332475832470 -0.032315102483
0.156974000000 0.325969299489 -0.033001503804 0.659346341574 -0.004760071451 0.659591402197 -0.007232198650 0.332883787847 -0.033624219319
0.168972000000 0.325931243767 -0.036000781567 0.660391193877 -0.005384327115 0.660582094566 -0.007798739665 0.332484459440 -0.036290750109
0.180970000000 0.325950983810 -0.039388495651 0.661097895922 -0.007166970733 0.661564853515 -0.008929433288 0.331869557724 -0.039841593816
0.192968000000 0.325934167820 -0.042529100766 0.661906141045 -0.008864282482 0.662456876757 -0.010430573365 0.331138456825 -0.042907635252
0.204966000000 0.325930286481 -0.045338714083 0.662176676167 -0.010229951705 0.662790232072 -0.011468385541 0.330090862239 -0.045781717900
0.216964000000 0.325827577463 -0.047774594326 0.662335248513 -0.011157478619 0.663009091192 -0.012749101785 0.329024239848 -0.047884977904
0.228962000000 0.325752937574 -0.049976931292 0.661889754983 -0.012580603200 0.662612741187 -0.013710374681 0.327811628827 -0.050204661406
0.240960000000 0.325474081481 -0.052141300755 0.661431866938 -0.015105181638 0.662018153637 -0.015124349884 0.326486819344 -0.052795232765
0.252958000000 0.325259946870 -0.054083492065 0.660498095897 -0.016476998479 0.661011018742 -0.016449555307 0.325223083220 -0.054806102837
0.264956000000 0.324888451546 -0.055627915466 0.659269397224 -0.017790662779 0.660066985627 -0.017101702610 0.323987461409 -0.056872754063
0.276954000000 0.324546126384 -0.056969610570 0.658088660466 -0.019329555046 0.658586927830 -0.017892876212 0.322788611492 -0.058988359494
0.288952000000 0.323984188545 -0.058030127780 0.656511282360 -0.020415012113 0.657190551177 -0.018369346787 0.321857117087 -0.060940735423
0.300950000000 0.323311940057 -0.058853680219 0.655209926207 -0.020605484932 0.655562959520 -0.018424135251 0.321149204762 -0.062411958938
0.312948000000 0.322850068640 -0.059230471749 0.653783444634 -0.020186336303 0.654102473191 -0.017513430803 0.320662333600 -0.063736517712
0.324946000000 0.321989958251 -0.059940855848 0.652481114989 -0.019438212652 0.652752405797 -0.017262199183 0.320425439630 -0.065115781517
0.336944000000 0.321256002358 -0.060787204370 0.651569460597 -0.019025045412 0.651605892730 -0.016634173751 0.320589466510 -0.066617428996
0.348942000000 0.320530151226 -0.061173803123 0.650314669959 -0.018123179242 0.650758742138 -0.015523532964 0.320907327336 -0.068433525407
0.360940000000 0.319757478030 -0.061810740246 0.649778857167 -0.017135426280 0.650103782288 -0.014410871808 0.321703456733 -0.070060769384
0.372938000000 0.319432960584 -0.063086525492 0.649906150631 -0.015397223256 0.650390681267 -0.012968522838 0.322630089578 -0.071600222432
0.384936000000 0.318835303905 -0.063739859742 0.649999396750 -0.013459123879 0.650271694536 -0.011122965769 0.323719729768 -0.073068648092
0.396934000000 0.318397072216 -0.064846839724 0.650753910003 -0.011701769582 0.650934716129 -0.009704167845 0.325079322541 -0.075044071634
0.408932000000 0.317839447528 -0.066679384004 0.651673286704 -0.010059898208 0.651956899620 -0.008035388576 0.326356079971 -0.077370221119
0.420930000000 0.317228133037 -0.069014225694 0.653143901642 -0.009309037877 0.653347646509 -0.007274118873 0.327423627511 -0.080053913823
0.432928000000 0.316674724660 -0.071504201161 0.654757187964 -0.008328350340 0.655063209337 -0.006036887567 0.328362194512 -0.082468394239
0.444926000000 0.316009632171 -0.074131151142 0.656826865376 -0.007736650139 0.656877085462 -0.004787492539 0.329113896524 -0.085039326154
0.456924000000 0.315167508445 -0.077165729646 0.658614697069 -0.007487859321 0.659086331229 -0.004507925055 0.329324827132 -0.087600671965
0.468922000000 0.314203814113 -0.080619230005 0.660265993497 -0.007269692007 0.660948789516 -0.005210018803 0.329067040940 -0.090077008016
0.480920000000 0.313334938302 -0.084489577603 0.662328027742 -0.008664789475 0.662813056166 -0.006811900439 0.328934899778 -0.092768325407
0.492918000000 0.312587436937 -0.087782579867 0.664147961825 -0.010568854781 0.664651474188 -0.008209746197 0.328072717344 -0.095434437469
0.504916000000 0.311948299015 -0.091255874296 0.665304052936 -0.012649864556 0.666153869159 -0.009872006061 0.327046023006 -0.097827448085
0.516914000000 0.311409019300 -0.094404302492 0.666097146542 -0.014730012468 0.666942876120 -0.011472099141 0.325830948848 -0.099833110625
0.528912000000 0.311131329425 -0.097703345913 0.666458458131 -0.017082446814 0.667090130652 -0.013672718370 0.324495713024 -0.101347673550
0.540910000000 0.311331118445 -0.100407431028 0.666698821577 -0.019204724909 0.668042055626 -0.016101267462 0.323082217598 -0.103297658459
0.552908000000 0.311471084856 -0.103010773135 0.666140780617 -0.021978890050 0.667008776069 -0.017425198512 0.321420986956 -0.104944484577
0.564906000000 0.311528709959 -0.105516154541 0.664794052661 -0.024701175884 0.666094488717 -0.019524187549 0.319475931703 -0.106726302790
0.576904000000 0.311707795394 -0.107952989767 0.663249242067 -0.027596236307 0.665131393664 -0.021529987554 0.317622457091 -0.108434239964
0.588902000000 0.311995052520 -0.109884545958 0.661482620653 -0.030153505940 0.663587161838 -0.022995858381 0.315691052514 -0.110377587782
0.600900000000 0.312277150526 -0.111793014502 0.659378943575 -0.032100099075 0.661739755064 -0.024704145846 0.314046290065 -0.112010604961
0.612898000000 0.312260366810 -0.113249598725 0.657210639211 -0.032950972130 0.659473382265 -0.026263258665 0.312356522623 -0.113236906742
0.624896000000 0.312328097497 -0.114574119695 0.654852072298 -0.033587985471 0.657261086688 -0.027186468080 0.310936535569 -0.114870419845
0.636894000000 0.312341265500 -0.115527711154 0.652588053157 -0.034313053236 0.654741733939 -0.027735996022 0.309526278600 -0.116627117069
0.648892000000 0.312043592396 -0.116515551665 0.650262102807 -0.035077892909 0.652993002117 -0.028286162057 0.308425595071 -0.118681738142
0.660890000000 0.311803402880 -0.117014426233 0.648154066298 -0.034160420573 0.651189504848 -0.027568916472 0.307607125943 -0.120447840960
0.672888000000 0.311433373606 -0.117601149078 0.646280518990 -0.033956402778 0.648817145662 -0.027290922533 0.306852643471 -0.122481103721
0.684886000000 0.310888530287 -0.118622985615 0.644903084121 -0.032726216112 0.647773685482 -0.026122866339 0.306406143077 -0.124659086528
0.696884000000 0.311017118280 -0.117999616349 0.644347517927 -0.030127988163 0.647453860249 -0.023276843777 0.306879409328 -0.127128454375
0.708882000000 0.310247057232 -0.118905636360 0.643836896420 -0.027973518764 0.646810124818 -0.021180519535 0.307062070600 -0.129443611645
0.720880000000 0.309368179911 -0.119668102384 0.643953466030 -0.026018647562 0.647091736870 -0.018487081910 0.307922188278 -0.131866959779
0.732878000000 0.308329517734 -0.120625235180 0.644744299271 -0.023267672560 0.647725799682 -0.016272688126 0.308047201602 -0.134760388516
0.744876000000 0.306658416182 -0.122367232955 0.646121708367 -0.021447859457 0.649075992455 -0.014421711670 0.308241569011 -0.138297738889
0.756874000000 0.304907984434 -0.124276296245 0.648242112431 -0.019784118108 0.650888973492 -0.012201001808 0.308454655739 -0.141625083447
0.768872000000 0.302668223191 -0.126569496561 0.650067621179 -0.019284488273 0.652943664029 -0.011045330281 0.308085017268 -0.145564229920
0.780870000000 0.300254112657 -0.129197271000 0.652874722135 -0.019442571045 0.655644519026 -0.010267634749 0.307688969546 -0.149015264591
0.792868000000 0.297756468946 -0.131634329024 0.655422240901 -0.018736654810 0.658349970769 -0.009126150511 0.306936135454 -0.152258924488
0.804866000000 0.295081113846 -0.134602732928 0.658536166691 -0.020001326653 0.661586754045 -0.009156331595 0.305698468699 -0.155614061293
0.816864000000 0.292325888259 -0.137570657939 0.660568752264 -0.022756519253 0.664590003530 -0.010557792518 0.304620016790 -0.158489011119
0.828862000000 0.290201117261 -0.140521830102 0.662916116546 -0.024898914605 0.666307145564 -0.012116006889 0.303722953242 -0.160830060338
0.840860000000 0.288384149242 -0.143541125147 0.664596693646 -0.027808674525 0.668125376377 -0.014517587807 0.302242966009 -0.163336990308
0.852858000000 0.286707310029 -0.146459342517 0.665712120645 -0.031122173387 0.670505620961 -0.017722680864 0.301093174555 -0.165497189407
0.864856000000 0.285344588126 -0.149421583252 0.666124530169 -0.035248043087 0.669933012621 -0.020295583049 0.299708290915 -0.167301222406
0.876854000000 0.284634499304 -0.152463261677 0.665905843666 -0.038824561098 0.670061290488 -0.023782892779 0.298361351212 -0.169025320084
0.888852000000 0.283743700573 -0.155326876093 0.664650887949 -0.042561576639 0.669092066165 -0.027370956260 0.296586558861 -0.170525355334
0.900850000000 0.283142282615 -0.158272899247 0.662470958954 -0.045757496030 0.667232035702 -0.030829646052 0.294516779275 -0.172324384114
0.912848000000 0.282570356281 -0.161133614456 0.659338115092 -0.049875721714 0.664830460619 -0.033692194509 0.292841142685 -0.174343514518
0.924846000000 0.282066823267 -0.163356669640 0.655794548428 -0.052061655841 0.661938886856 -0.036385845112 0.291315555573 -0.176087189514
0.936844000000 0.281828339365 -0.165076509460 0.651450150082 -0.054097982156 0.658119794941 -0.038456374887 0.289417982573 -0.177806428950
0.948842000000 0.281567503570 -0.166397172152 0.647189959602 -0.055243626213 0.654249076418 -0.039461602757 0.287875095963 -0.179185982796
0.960840000000 0.280967528924 -0.167474883544 0.643338828225 -0.055292099705 0.650138255424 -0.040281419648 0.286658861728 -0.180509462142
0.972838000000 0.280228334566 -0.167530697372 0.638789139839 -0.055169035900 0.645357295382 -0.039162135349 0.284909432576 -0.182020744648
0.984836000000 0.279593308656 -0.167054988963 0.635017167428 -0.053281714407 0.641059874153 -0.038045570399 0.284105548863 -0.183324859451
0.996834000000 0.278429622471 -0.167103760472 0.631653974853 -0.051105654150 0.637454219562 -0.036131948537 0.283273738943 -0.184742768876
1.008832000000 0.277464965573 -0.167172809691 0.628738820585 -0.048597299923 0.634555307237 -0.033831798879 0.282834384790 -0.186573452229
1.020830000000 0.276584751072 -0.167099650052 0.626958322607 -0.044801036614 0.631788344751 -0.030174847992 0.283364539311 -0.187959159538
1.032828000000 0.275884072388 -0.166188562873 0.626208325291 -0.037406357218 0.630880659344 -0.026361613025 0.284673356999 -0.187653845192
1.044826000000 0.274993651329 -0.165350274168 0.626245573641 -0.031573456837 0.630816040582 -0.021156149647 0.285973503002 -0.189692061851
1.056824000000 0.273433799734 -0.165985770259 0.626747060490 -0.027541568825 0.631582785597 -0.017022930556 0.286394780400 -0.192029200341
1.068822000000 0.271159768641 -0.167322057597 0.629157707906 -0.022906599079 0.633437947748 -0.013471615314 0.286858898461 -0.194939596946
1.080820000000 0.268203160642 -0.168823911579 0.631840934494 -0.018254066990 0.636040447013 -0.009449267363 0.286425486644 -0.197677140879
1.092818000000 0.265236709657 -0.171473682449 0.636050528666 -0.015967421774 0.639332246263 -0.006903074374 0.285899996943 -0.201566485517
1.104816000000 0.261819967472 -0.174229042188 0.640801821513 -0.013917675760 0.644330695257 -0.004622992677 0.284425123636 -0.204895566416
1.116814000000 0.257920227384 -0.177546345182 0.645944203620 -0.013173231361 0.649227610169 -0.003703238819 0.282632119903 -0.208044800668
1.128812000000 0.253282934749 -0.180751218530 0.651885522092 -0.013749955867 0.654536651501 -0.003751161943 0.280521922444 -0.211113076783
1.140810000000 0.249137756620 -0.184145780015 0.657294144743 -0.016038876938 0.659143963915 -0.006289978225 0.278064290818 -0.213492996786
1.152808000000 0.245059887146 -0.187069730225 0.662317721021 -0.018949104036 0.664191915492 -0.008537606223 0.275284109663 -0.214847421171
1.164806000000 0.241695836130 -0.191190542218 0.666211289193 -0.024625036852 0.667689275806 -0.012731057743 0.272460475900 -0.216078773939
1.176804000000 0.239567310523 -0.195037012840 0.671326102094 -0.030201561647 0.670101314771 -0.018005139544 0.269463791354 -0.216646126598
1.188802000000 0.237010049419 -0.199052782923 0.670159004052 -0.036030170176 0.672410773899 -0.024320678692 0.266441982937 -0.217975783615
1.200800000000 0.235757783088 -0.203217303935 0.669442145927 -0.042628235264 0.672666134388 -0.029790502596 0.263704480040 -0.218852147233
1.212798000000 0.235101169423 -0.207372730454 0.667182210226 -0.049579994351 0.671488891708 -0.034656875019 0.260669533861 -0.219581340091
1.224796000000 0.234322905645 -0.211747050480 0.664194633525 -0.055028544823 0.668766336161 -0.039643606870 0.257690532942 -0.220588719586
1.236794000000 0.233721229681 -0.215449526096 0.659818872986 -0.059969073809 0.664345407201 -0.043122770318 0.254377195160 -0.221027646142
1.248792000000 0.233196984110 -0.219244960568 0.654109773500 -0.063603863015 0.658807644327 -0.046512192474 0.250872162717 -0.221912890618
1.260790000000 0.232927699794 -0.222145405456 0.647895454847 -0.065597625374 0.652700086749 -0.048245733528 0.247514550870 -0.222536838856
1.272788000000 0.233030576525 -0.224218734579 0.640266652350 -0.067627631197 0.646259884769 -0.049928634536 0.243224789929 -0.223737255476
1.284786000000 0.233167231133 -0.226331534560 0.635377944511 -0.066223497075 0.639629078949 -0.048152067174 0.241772975543 -0.223596974504
1.296784000000 0.233879984477 -0.227471694416 0.629320939960 -0.064778795434 0.634096587942 -0.047043827794 0.239700035499 -0.223857576540
1.308782000000 0.235561090683 -0.226789855050 0.623526805905 -0.060423822108 0.627241791185 -0.042664035584 0.238157257470 -0.223221978873
1.320780000000 0.236624217720 -0.226058998464 0.618651177751 -0.055369604243 0.622490046156 -0.037542896548 0.236984965341 -0.223126956758
1.332778000000 0.237576899609 -0.224919773066 0.615225874407 -0.051652426894 0.618580653734 -0.033089561112 0.235749984619 -0.223999510417
1.344776000000 0.238741939663 -0.224054108713 0.612700948171 -0.045332596430 0.616415655047 -0.027027945410 0.235783540829 -0.225375863169
1.356774000000 0.239911216516 -0.222892585019 0.611683732917 -0.038165404285 0.615274037000 -0.019856889881 0.236537269788 -0.227314731111
1.368772000000 0.240225192887 -0.221895152215 0.612318175355 -0.030662776202 0.615450239224 -0.012088462646 0.237219751314 -0.229227317415
1.380770000000 0.239954684943 -0.221637413347 0.615115399541 -0.023820341962 0.617608105409 -0.005499921805 0.237899835218 -0.232524537711
1.392768000000 0.238764214132 -0.222455536983 0.619422200633 -0.017593663030 0.621188265199 0.000828639147 0.238044131893 -0.236788252727
1.404766000000 0.235887657276 -0.223465262143 0.624791911021 -0.012016608436 0.626661993602 0.007017272276 0.237128336734 -0.241113053514
1.416764000000 0.232050074239 -0.224544698071 0.631626731080 -0.007302069680 0.633311750465 0.011463148577 0.235607049764 -0.245574074155
1.428762000000 0.227222194162 -0.226664853247 0.640918971722 -0.003880274554 0.641969309078 0.015751875471 0.232920311287 -0.249292258936
1.440760000000 0.221592568131 -0.228087194675 0.650306525599 -0.002012371402 0.650333683573 0.016232339320 0.228675656074 -0.251827989458
1.452758000000 0.215469315006 -0.229375039208 0.659605530915 -0.001957835014 0.661602123348 0.015873207051 0.224895114359 -0.254480617128
1.464756000000 0.209915115817 -0.231024264513 0.669411667931 -0.004794924569 0.670258384016 0.013726184272 0.220990562738 -0.255528214579
1.476754000000 0.204142663126 -0.232072499648 0.676900451286 -0.010150629678 0.678333640850 0.009024108847 0.217461955960 -0.255566956592
1.488752000000 0.199621238645 -0.234001200728 0.682866311683 -0.017853989342 0.685112056717 0.001121954521 0.213728041261 -0.255602063665
1.500750000000 0.195668206429 -0.236690837946 0.686084640134 -0.027263193740 0.691508634404 -0.006743651818 0.210701132292 -0.255015321180
1.512748000000 0.191775644668 -0.239233197494 0.687767242932 -0.034965455682 0.691733763377 -0.016789497895 0.207591383618 -0.255026320256
1.524746000000 0.189287792812 -0.243175032699 0.686734559041 -0.044198298773 0.691063954566 -0.026527366924 0.204709393096 -0.255211607642
1.536744000000 0.187342601861 -0.247998611661 0.684254576752 -0.052983273074 0.688363297185 -0.035122929001 0.201972734320 -0.255719178744
1.548742000000 0.185756939367 -0.253353835130 0.678934573829 -0.058848258533 0.683988175174 -0.041995144939 0.198851745201 -0.256476168857
1.560740000000 0.184737449050 -0.258306125256 0.672217226351 -0.063336037103 0.678095005380 -0.046963116854 0.195543493904 -0.256339671153
1.572738000000 0.183334328344 -0.262734323637 0.665574658164 -0.068576927943 0.670467870570 -0.050865358674 0.192387785868 -0.257439676223
1.584736000000 0.182448947707 -0.266965807958 0.658132475150 -0.071066631592 0.661548061743 -0.053460022634 0.188975018051 -0.258109651002
1.596734000000 0.182160957857 -0.270396690147 0.649791671086 -0.070764869941 0.653137457095 -0.053341990571 0.186003327634 -0.258391040001
1.608732000000 0.182275933536 -0.272560483689 0.641966878323 -0.068743325263 0.645958001800 -0.050819525733 0.183205638265 -0.258827728571
1.620730000000 0.183102497462 -0.274444884631 0.634774570261 -0.065429040003 0.638288068739 -0.046586421984 0.181162490107 -0.259291888578
1.632728000000 0.184461263044 -0.275102563506 0.629199670619 -0.059267558014 0.631601893419 -0.041237996719 0.180420436912 -0.259383222803
1.644726000000 0.185813381237 -0.275298661837 0.625067189874 -0.052687201227 0.626891477053 -0.034563528657 0.179515739995 -0.259837480237
1.656724000000 0.187603463429 -0.275406125560 0.622336650428 -0.046820686676 0.623083270947 -0.027398136778 0.177857497069 -0.261041536953
1.668722000000 0.188996336418 -0.275343395370 0.622178031465 -0.039443753418 0.621614850319 -0.019113240707 0.177617115363 -0.262693207936
1.680720000000 0.190116249591 -0.274766915703 0.623444467616 -0.032187013366 0.622256667187 -0.010565079115 0.177093334069 -0.265423406243
1.692718000000 0.190303236491 -0.274413653967 0.627004142590 -0.023675601442 0.625246857726 -0.002256888909 0.177406853680 -0.268816032473
1.704716000000 0.189527534861 -0.273704304153 0.632754873037 -0.016594319231 0.630757290956 0.006094892729 0.176141234553 -0.273676122470
