! Touchstone file generated by xDriver.py
# Hz S RI R 50
! Freq ReS11 ImS11 ReS21 ImS21 ReS12 ImS12 ReS22 ImS22
1.000000e+06 0.950872 0.080176 0.000299 0.004777 0.000299 0.004777 0.950872 0.080176
1.005720e+06 0.947509 0.095291 -0.000242 0.004950 -0.000242 0.004950 0.947509 0.095291
1.011473e+06 0.949313 0.096464 0.000185 0.004860 0.000185 0.004860 0.949313 0.096464
1.017259e+06 0.949291 0.094826 -0.000270 0.005136 -0.000270 0.005136 0.949291 0.094826
1.023077e+06 0.949141 0.096659 0.000063 0.005181 0.000063 0.005181 0.949141 0.096659
1.028929e+06 0.945971 0.095395 0.000003 0.004983 0.000003 0.004983 0.945971 0.095395
1.034815e+06 0.949007 0.094343 -0.000020 0.005081 -0.000020 0.005081 0.949007 0.094343
1.040734e+06 0.948700 0.094852 -0.000277 0.005310 -0.000277 0.005310 0.948700 0.094852
1.046687e+06 0.948762 0.095606 0.000200 0.005319 0.000200 0.005319 0.948762 0.095606
1.052674e+06 0.949239 0.093149 0.000131 0.005073 0.000131 0.005073 0.949239 0.093149
1.058696e+06 0.947297 0.092684 -0.000033 0.005297 -0.000033 0.005297 0.947297 0.092684
1.064752e+06 0.946973 0.092967 -0.000119 0.005240 -0.000119 0.005240 0.946973 0.092967
1.070842e+06 0.949382 0.092988 0.000127 0.005262 0.000127 0.005262 0.949382 0.092988
1.076967e+06 0.947547 0.094099 -0.000027 0.005238 -0.000027 0.005238 0.947547 0.094099
1.083128e+06 0.947927 0.094624 -0.000073 0.005253 -0.000073 0.005253 0.947927 0.094624
1.089323e+06 0.948793 0.093761 -0.000218 0.005647 -0.000218 0.005647 0.948793 0.093761
1.095554e+06 0.947198 0.093892 -0.000068 0.005483 -0.000068 0.005483 0.947198 0.093892
1.101821e+06 0.947429 0.092925 0.000164 0.005369 0.000164 0.005369 0.947429 0.092925
1.108124e+06 0.949543 0.094109 -0.000145 0.005376 -0.000145 0.005376 0.949543 0.094109
1.114462e+06 0.949132 0.092316 -0.000210 0.005394 -0.000210 0.005394 0.949132 0.092316
1.120837e+06 0.948886 0.092726 -0.000071 0.005483 -0.000071 0.005483 0.948886 0.092726
1.127248e+06 0.948999 0.091081 -0.000127 0.005850 -0.000127 0.005850 0.948999 0.091081
1.133696e+06 0.949040 0.089905 -0.000267 0.005707 -0.000267 0.005707 0.949040 0.089905
1.140181e+06 0.947968 0.091019 0.000006 0.005445 0.000006 0.005445 0.947968 0.091019
1.146703e+06 0.948565 0.090247 -0.000108 0.005744 -0.000108 0.005744 0.948565 0.090247
1.153262e+06 0.947823 0.087747 -0.000086 0.005712 -0.000086 0.005712 0.947823 0.087747
1.159859e+06 0.947905 0.090125 -0.000121 0.005618 -0.000121 0.005618 0.947905 0.090125
1.166493e+06 0.949058 0.088982 -0.000243 0.005848 -0.000243 0.005848 0.949058 0.088982
1.173166e+06 0.948530 0.089689 -0.000181 0.005884 -0.000181 0.005884 0.948530 0.089689
1.179876e+06 0.951498 0.091255 -0.000033 0.005783 -0.000033 0.005783 0.951498 0.091255
1.186625e+06 0.948277 0.089430 0.000040 0.006059 0.000040 0.006059 0.948277 0.089430
1.193413e+06 0.977036 0.096812 -0.000150 0.005930 -0.000150 0.005930 0.977036 0.096812
1.200239e+06 0.976735 0.097092 -0.000172 0.006099 -0.000172 0.006099 0.976735 0.097092
1.207105e+06 0.974169 0.099956 -0.000077 0.006082 -0.000077 0.006082 0.974169 0.099956
1.214010e+06 0.973081 0.097831 -0.000244 0.006023 -0.000244 0.006023 0.973081 0.097831
1.220954e+06 0.975563 0.100416 -0.000150 0.006079 -0.000150 0.006079 0.975563 0.100416
1.227938e+06 0.973796 0.100717 -0.000173 0.006118 -0.000173 0.006118 0.973796 0.100717
1.234962e+06 0.974644 0.101223 -0.000264 0.006399 -0.000264 0.006399 0.974644 0.101223
1.242026e+06 0.974094 0.098620 -0.000146 0.006146 -0.000146 0.006146 0.974094 0.098620
1.249130e+06 0.974884 0.098711 0.000026 0.006408 0.000026 0.006408 0.974884 0.098711
1.256275e+06 0.974900 0.097940 -0.000109 0.006261 -0.000109 0.006261 0.974900 0.097940
1.263461e+06 0.975412 0.099432 -0.000337 0.006250 -0.000337 0.006250 0.975412 0.099432
1.270688e+06 0.974018 0.100814 -0.000005 0.006432 -0.000005 0.006432 0.974018 0.100814
1.277957e+06 0.974080 0.099966 -0.000195 0.006447 -0.000195 0.006447 0.974080 0.099966
1.285267e+06 0.975003 0.099850 -0.000098 0.006621 -0.000098 0.006621 0.975003 0.099850
1.292619e+06 0.975038 0.100227 -0.000307 0.006449 -0.000307 0.006449 0.975038 0.100227
1.300013e+06 0.974033 0.101643 -0.000338 0.006531 -0.000338 0.006531 0.974033 0.101643
1.307449e+06 0.972311 0.098665 -0.000140 0.006652 -0.000140 0.006652 0.972311 0.098665
1.314928e+06 0.975402 0.100766 -0.000081 0.006481 -0.000081 0.006481 0.975402 0.100766
1.322449e+06 0.970525 0.100870 -0.000343 0.006785 -0.000343 0.006785 0.970525 0.100870
1.330014e+06 0.973517 0.100741 -0.000015 0.006707 -0.000015 0.006707 0.973517 0.100741
1.337621e+06 0.973869 0.100724 -0.000193 0.006775 -0.000193 0.006775 0.973869 0.100724
1.345273e+06 0.972578 0.100454 -0.000302 0.006519 -0.000302 0.006519 0.972578 0.100454
1.352968e+06 0.971847 0.099888 -0.000220 0.006787 -0.000220 0.006787 0.971847 0.099888
1.360707e+06 0.971763 0.101041 -0.000188 0.006796 -0.000188 0.006796 0.971763 0.101041
1.368490e+06 0.974242 0.101269 -0.000143 0.007009 -0.000143 0.007009 0.974242 0.101269
1.376318e+06 0.973934 0.099204 -0.000379 0.007180 -0.000379 0.007180 0.973934 0.099204
1.384191e+06 0.972781 0.103262 -0.000305 0.007138 -0.000305 0.007138 0.972781 0.103262
1.392108e+06 0.973623 0.103940 -0.000176 0.006936 -0.000176 0.006936 0.973623 0.103940
1.400071e+06 0.974354 0.101473 -0.000135 0.007057 -0.000135 0.007057 0.974354 0.101473
1.408080e+06 0.973200 0.101784 -0.000103 0.007007 -0.000103 0.007007 0.973200 0.101784
1.416134e+06 0.971158 0.102942 -0.000228 0.007219 -0.000228 0.007219 0.971158 0.102942
1.424235e+06 0.974011 0.102240 -0.000278 0.007139 -0.000278 0.007139 0.974011 0.102240
1.432381e+06 0.972631 0.101221 -0.000367 0.007207 -0.000367 0.007207 0.972631 0.101221
1.440575e+06 0.972364 0.101377 -0.000373 0.007294 -0.000373 0.007294 0.972364 0.101377
1.448815e+06 0.971452 0.100917 -0.000248 0.007231 -0.000248 0.007231 0.971452 0.100917
1.457102e+06 0.973476 0.102288 -0.000332 0.007291 -0.000332 0.007291 0.973476 0.102288
1.465437e+06 0.972006 0.101056 -0.000133 0.007531 -0.000133 0.007531 0.972006 0.101056
1.473819e+06 0.971692 0.103322 -0.000165 0.007413 -0.000165 0.007413 0.971692 0.103322
1.482250e+06 0.971924 0.101117 -0.000344 0.007369 -0.000344 0.007369 0.971924 0.101117
1.490728e+06 0.971857 0.100995 -0.000318 0.007653 -0.000318 0.007653 0.971857 0.100995
1.499255e+06 0.973713 0.100771 -0.000287 0.007613 -0.000287 0.007613 0.973713 0.100771
1.507831e+06 0.970573 0.099511 -0.000268 0.007723 -0.000268 0.007723 0.970573 0.099511
1.516456e+06 0.971386 0.100721 -0.000315 0.007806 -0.000315 0.007806 0.971386 0.100721
1.525130e+06 0.971488 0.101430 -0.000315 0.007890 -0.000315 0.007890 0.971488 0.101430
1.533854e+06 0.971309 0.099323 -0.000286 0.007594 -0.000286 0.007594 0.971309 0.099323
1.542628e+06 0.973745 0.101299 -0.000226 0.007946 -0.000226 0.007946 0.973745 0.101299
1.551452e+06 0.971771 0.100983 -0.000189 0.007942 -0.000189 0.007942 0.971771 0.100983
1.560326e+06 0.970318 0.098980 -0.000284 0.008022 -0.000284 0.008022 0.970318 0.098980
1.569252e+06 0.970501 0.100910 -0.000316 0.007904 -0.000316 0.007904 0.970501 0.100910
1.578228e+06 0.970250 0.102106 -0.000215 0.008010 -0.000215 0.008010 0.970250 0.102106
1.587255e+06 0.969626 0.100776 -0.000247 0.007936 -0.000247 0.007936 0.969626 0.100776
1.596335e+06 0.971030 0.101734 -0.000428 0.008129 -0.000428 0.008129 0.971030 0.101734
1.605466e+06 0.971158 0.101756 -0.000380 0.008114 -0.000380 0.008114 0.971158 0.101756
1.614649e+06 0.971260 0.100109 -0.000232 0.008191 -0.000232 0.008191 0.971260 0.100109
1.623885e+06 0.970099 0.102633 -0.000325 0.008245 -0.000325 0.008245 0.970099 0.102633
1.633174e+06 0.970644 0.101594 -0.000456 0.008256 -0.000456 0.008256 0.970644 0.101594
1.642516e+06 0.970633 0.101640 -0.000368 0.008285 -0.000368 0.008285 0.970633 0.101640
1.651911e+06 0.970675 0.102032 -0.000310 0.008476 -0.000310 0.008476 0.970675 0.102032
1.661360e+06 0.969374 0.100149 -0.000278 0.008300 -0.000278 0.008300 0.969374 0.100149
1.670863e+06 0.970219 0.102946 -0.000356 0.008382 -0.000356 0.008382 0.970219 0.102946
1.680421e+06 0.968296 0.101526 -0.000414 0.008510 -0.000414 0.008510 0.968296 0.101526
1.690033e+06 0.970324 0.101021 -0.000341 0.008506 -0.000341 0.008506 0.970324 0.101021
1.699700e+06 0.969718 0.100031 -0.000396 0.008728 -0.000396 0.008728 0.969718 0.100031
1.709422e+06 0.967557 0.101643 -0.000367 0.008746 -0.000367 0.008746 0.967557 0.101643
1.719200e+06 0.968929 0.102168 -0.000368 0.008739 -0.000368 0.008739 0.968929 0.102168
1.729034e+06 0.969236 0.101127 -0.000292 0.008766 -0.000292 0.008766 0.969236 0.101127
1.738925e+06 0.970189 0.101172 -0.000202 0.008856 -0.000202 0.008856 0.970189 0.101172
1.748871e+06 0.969624 0.099758 -0.000316 0.008826 -0.000316 0.008826 0.969624 0.099758
1.758875e+06 0.970998 0.100300 -0.000308 0.008947 -0.000308 0.008947 0.970998 0.100300
1.768936e+06 0.968860 0.100543 -0.000339 0.008911 -0.000339 0.008911 0.968860 0.100543
1.779054e+06 0.969554 0.100349 -0.000371 0.009016 -0.000371 0.009016 0.969554 0.100349
1.789231e+06 0.969967 0.099583 -0.000215 0.009079 -0.000215 0.009079 0.969967 0.099583
1.799465e+06 0.969136 0.100194 -0.000415 0.009105 -0.000415 0.009105 0.969136 0.100194
1.809758e+06 0.968977 0.099662 -0.000430 0.009201 -0.000430 0.009201 0.968977 0.099662
1.820110e+06 0.968414 0.100408 -0.000321 0.009069 -0.000321 0.009069 0.968414 0.100408
1.830522e+06 0.969021 0.099614 -0.000433 0.009390 -0.000433 0.009390 0.969021 0.099614
1.840992e+06 0.968844 0.099309 -0.000376 0.009399 -0.000376 0.009399 0.968844 0.099309
1.851523e+06 0.969250 0.100457 -0.000424 0.009409 -0.000424 0.009409 0.969250 0.100457
1.862114e+06 0.969483 0.099427 -0.000343 0.009479 -0.000343 0.009479 0.969483 0.099427
1.872765e+06 0.968598 0.099564 -0.000438 0.009499 -0.000438 0.009499 0.968598 0.099564
1.883478e+06 0.968151 0.099966 -0.000287 0.009507 -0.000287 0.009507 0.968151 0.099966
1.894251e+06 0.969306 0.101117 -0.000266 0.009683 -0.000266 0.009683 0.969306 0.101117
1.905087e+06 0.967380 0.098672 -0.000346 0.009754 -0.000346 0.009754 0.967380 0.098672
1.915984e+06 0.968056 0.099841 -0.000339 0.009674 -0.000339 0.009674 0.968056 0.099841
1.926943e+06 0.969411 0.098751 -0.000368 0.009710 -0.000368 0.009710 0.969411 0.098751
1.937966e+06 0.969354 0.099814 -0.000332 0.009900 -0.000332 0.009900 0.969354 0.099814
1.949051e+06 0.967374 0.099482 -0.000498 0.009957 -0.000498 0.009957 0.967374 0.099482
1.960200e+06 0.968873 0.100122 -0.000574 0.010041 -0.000574 0.010041 0.968873 0.100122
1.971412e+06 0.967310 0.099807 -0.000321 0.009941 -0.000321 0.009941 0.967310 0.099807
1.982689e+06 0.969032 0.100783 -0.000462 0.010124 -0.000462 0.010124 0.969032 0.100783
1.994030e+06 0.968082 0.097458 -0.000282 0.010115 -0.000282 0.010115 0.968082 0.097458
2.005436e+06 0.967654 0.096013 -0.000487 0.010286 -0.000487 0.010286 0.967654 0.096013
2.016907e+06 0.968889 0.097591 -0.000400 0.010330 -0.000400 0.010330 0.968889 0.097591
2.028444e+06 0.967969 0.098587 -0.000430 0.010316 -0.000430 0.010316 0.967969 0.098587
2.040047e+06 0.969668 0.098464 -0.000421 0.010452 -0.000421 0.010452 0.969668 0.098464
2.051716e+06 0.968316 0.097907 -0.000355 0.010431 -0.000355 0.010431 0.968316 0.097907
2.063452e+06 0.967639 0.097085 -0.000411 0.010534 -0.000411 0.010534 0.967639 0.097085
2.075255e+06 0.968482 0.098205 -0.000370 0.010626 -0.000370 0.010626 0.968482 0.098205
2.087126e+06 0.967076 0.095962 -0.000389 0.010725 -0.000389 0.010725 0.967076 0.095962
2.099064e+06 0.968127 0.097979 -0.000338 0.010765 -0.000338 0.010765 0.968127 0.097979
2.111071e+06 0.966829 0.096323 -0.000323 0.010676 -0.000323 0.010676 0.966829 0.096323
2.123147e+06 0.966467 0.095918 -0.000402 0.010913 -0.000402 0.010913 0.966467 0.095918
2.135291e+06 0.967026 0.094434 -0.000495 0.010861 -0.000495 0.010861 0.967026 0.094434
2.147505e+06 0.965798 0.095361 -0.000544 0.011104 -0.000544 0.011104 0.965798 0.095361
2.159789e+06 0.967844 0.095181 -0.000558 0.011113 -0.000558 0.011113 0.967844 0.095181
2.172143e+06 0.967314 0.094856 -0.000418 0.011074 -0.000418 0.011074 0.967314 0.094856
2.184568e+06 0.967334 0.094115 -0.000377 0.011174 -0.000377 0.011174 0.967334 0.094115
2.197064e+06 0.967837 0.095471 -0.000502 0.011185 -0.000502 0.011185 0.967837 0.095471
2.209632e+06 0.968180 0.094271 -0.000540 0.011405 -0.000540 0.011405 0.968180 0.094271
2.222271e+06 0.968512 0.094136 -0.000519 0.011448 -0.000519 0.011448 0.968512 0.094136
2.234982e+06 0.969508 0.094717 -0.000588 0.011531 -0.000588 0.011531 0.969508 0.094717
2.247767e+06 0.967388 0.095330 -0.000395 0.011503 -0.000395 0.011503 0.967388 0.095330
2.260624e+06 0.967448 0.093318 -0.000419 0.011624 -0.000419 0.011624 0.967448 0.093318
2.273555e+06 0.967060 0.095196 -0.000483 0.011689 -0.000483 0.011689 0.967060 0.095196
2.286560e+06 0.967264 0.093906 -0.000425 0.011868 -0.000425 0.011868 0.967264 0.093906
2.299639e+06 0.967271 0.093803 -0.000485 0.011797 -0.000485 0.011797 0.967271 0.093803
2.312793e+06 0.966847 0.092691 -0.000459 0.011801 -0.000459 0.011801 0.966847 0.092691
2.326023e+06 0.966156 0.094358 -0.000431 0.011906 -0.000431 0.011906 0.966156 0.094358
2.339328e+06 0.966589 0.094832 -0.000477 0.011984 -0.000477 0.011984 0.966589 0.094832
2.352709e+06 0.967145 0.093110 -0.000415 0.012133 -0.000415 0.012133 0.967145 0.093110
2.366167e+06 0.966663 0.093485 -0.000374 0.012119 -0.000374 0.012119 0.966663 0.093485
2.379701e+06 0.967758 0.091337 -0.000525 0.012362 -0.000525 0.012362 0.967758 0.091337
2.393313e+06 0.966089 0.092844 -0.000533 0.012219 -0.000533 0.012219 0.966089 0.092844
2.407003e+06 0.966417 0.091721 -0.000335 0.012479 -0.000335 0.012479 0.966417 0.091721
2.420771e+06 0.967051 0.090936 -0.000551 0.012544 -0.000551 0.012544 0.967051 0.090936
2.434618e+06 0.967415 0.092229 -0.000375 0.012600 -0.000375 0.012600 0.967415 0.092229
2.448545e+06 0.966979 0.091368 -0.000406 0.012509 -0.000406 0.012509 0.966979 0.091368
2.462551e+06 0.966566 0.091124 -0.000482 0.012473 -0.000482 0.012473 0.966566 0.091124
2.476637e+06 0.966079 0.090993 -0.000484 0.012758 -0.000484 0.012758 0.966079 0.090993
2.490803e+06 0.965499 0.090081 -0.000524 0.012824 -0.000524 0.012824 0.965499 0.090081
2.505051e+06 0.965784 0.091206 -0.000520 0.012930 -0.000520 0.012930 0.965784 0.091206
2.519380e+06 0.965915 0.089639 -0.000464 0.012996 -0.000464 0.012996 0.965915 0.089639
2.533791e+06 0.965906 0.090733 -0.000494 0.012950 -0.000494 0.012950 0.965906 0.090733
2.548284e+06 0.967313 0.087821 -0.000366 0.013090 -0.000366 0.013090 0.967313 0.087821
2.562861e+06 0.966448 0.089034 -0.000511 0.013215 -0.000511 0.013215 0.966448 0.089034
2.577521e+06 0.965611 0.088837 -0.000535 0.013304 -0.000535 0.013304 0.965611 0.088837
2.592264e+06 0.967940 0.088971 -0.000503 0.013356 -0.000503 0.013356 0.967940 0.088971
2.607092e+06 0.966064 0.088256 -0.000454 0.013522 -0.000454 0.013522 0.966064 0.088256
2.622005e+06 0.965840 0.087513 -0.000502 0.013535 -0.000502 0.013535 0.965840 0.087513
2.637003e+06 0.965394 0.087951 -0.000464 0.013538 -0.000464 0.013538 0.965394 0.087951
2.652087e+06 0.966416 0.087064 -0.000433 0.013634 -0.000433 0.013634 0.966416 0.087064
2.667257e+06 0.966069 0.086357 -0.000623 0.013731 -0.000623 0.013731 0.966069 0.086357
2.682514e+06 0.965516 0.087259 -0.000480 0.013854 -0.000480 0.013854 0.965516 0.087259
2.697858e+06 0.965778 0.087501 -0.000571 0.013824 -0.000571 0.013824 0.965778 0.087501
2.713290e+06 0.965143 0.087572 -0.000538 0.014125 -0.000538 0.014125 0.965143 0.087572
2.728810e+06 0.967011 0.085999 -0.000427 0.014058 -0.000427 0.014058 0.967011 0.085999
2.744419e+06 0.966424 0.087481 -0.000650 0.014131 -0.000650 0.014131 0.966424 0.087481
2.760118e+06 0.965627 0.086570 -0.000565 0.014139 -0.000565 0.014139 0.965627 0.086570
2.775906e+06 0.965682 0.086187 -0.000555 0.014259 -0.000555 0.014259 0.965682 0.086187
2.791784e+06 0.964702 0.086429 -0.000466 0.014433 -0.000466 0.014433 0.964702 0.086429
2.807753e+06 0.965252 0.083664 -0.000546 0.014408 -0.000546 0.014408 0.965252 0.083664
2.823814e+06 0.965523 0.084925 -0.000573 0.014528 -0.000573 0.014528 0.965523 0.084925
2.839966e+06 0.965143 0.083877 -0.000499 0.014688 -0.000499 0.014688 0.965143 0.083877
2.856211e+06 0.966039 0.084183 -0.000578 0.014627 -0.000578 0.014627 0.966039 0.084183
2.872549e+06 0.966681 0.082717 -0.000619 0.014707 -0.000619 0.014707 0.966681 0.082717
2.888980e+06 0.966293 0.083245 -0.000549 0.014824 -0.000549 0.014824 0.966293 0.083245
2.905505e+06 0.965404 0.081719 -0.000617 0.014977 -0.000617 0.014977 0.965404 0.081719
2.922125e+06 0.964707 0.082523 -0.000561 0.015114 -0.000561 0.015114 0.964707 0.082523
2.938840e+06 0.964908 0.082667 -0.000513 0.015027 -0.000513 0.015027 0.964908 0.082667
2.955650e+06 0.965541 0.081582 -0.000583 0.015273 -0.000583 0.015273 0.965541 0.081582
2.972557e+06 0.965870 0.080845 -0.000620 0.015236 -0.000620 0.015236 0.965870 0.080845
2.989560e+06 0.965294 0.081302 -0.000427 0.015420 -0.000427 0.015420 0.965294 0.081302
3.006661e+06 0.965368 0.081034 -0.000516 0.015602 -0.000516 0.015602 0.965368 0.081034
3.023859e+06 0.965198 0.079378 -0.000594 0.015664 -0.000594 0.015664 0.965198 0.079378
3.041156e+06 0.965355 0.079088 -0.000535 0.015647 -0.000535 0.015647 0.965355 0.079088
3.058551e+06 0.964980 0.079060 -0.000489 0.015672 -0.000489 0.015672 0.964980 0.079060
3.076046e+06 0.965319 0.077950 -0.000589 0.015924 -0.000589 0.015924 0.965319 0.077950
3.093642e+06 0.965257 0.077300 -0.000549 0.015899 -0.000549 0.015899 0.965257 0.077300
3.111338e+06 0.965418 0.078243 -0.000520 0.015997 -0.000520 0.015997 0.965418 0.078243
3.129135e+06 0.965606 0.078965 -0.000645 0.016062 -0.000645 0.016062 0.965606 0.078965
3.147034e+06 0.966012 0.077498 -0.000522 0.016242 -0.000522 0.016242 0.966012 0.077498
3.165035e+06 0.964963 0.077789 -0.000587 0.016383 -0.000587 0.016383 0.964963 0.077789
3.183139e+06 0.964641 0.076709 -0.000549 0.016459 -0.000549 0.016459 0.964641 0.076709
3.201347e+06 0.963424 0.077531 -0.000491 0.016463 -0.000491 0.016463 0.963424 0.077531
3.219659e+06 0.966198 0.076850 -0.000553 0.016605 -0.000553 0.016605 0.966198 0.076850
3.238076e+06 0.964743 0.075099 -0.000592 0.016663 -0.000592 0.016663 0.964743 0.075099
3.256598e+06 0.964476 0.075831 -0.000515 0.016774 -0.000515 0.016774 0.964476 0.075831
3.275226e+06 0.965177 0.075813 -0.000502 0.016863 -0.000502 0.016863 0.965177 0.075813
3.293960e+06 0.964995 0.074652 -0.000532 0.017028 -0.000532 0.017028 0.964995 0.074652
3.312802e+06 0.964981 0.073796 -0.000508 0.017187 -0.000508 0.017187 0.964981 0.073796
3.331751e+06 0.964668 0.074010 -0.000542 0.017257 -0.000542 0.017257 0.964668 0.074010
3.350809e+06 0.965073 0.073366 -0.000506 0.017255 -0.000506 0.017255 0.965073 0.073366
3.369976e+06 0.964748 0.072417 -0.000567 0.017325 -0.000567 0.017325 0.964748 0.072417
3.389253e+06 0.965161 0.072144 -0.000484 0.017560 -0.000484 0.017560 0.965161 0.072144
3.408639e+06 0.964515 0.072724 -0.000471 0.017661 -0.000471 0.017661 0.964515 0.072724
3.428137e+06 0.964983 0.071294 -0.000553 0.017784 -0.000553 0.017784 0.964983 0.071294
3.447746e+06 0.964594 0.071543 -0.000686 0.017906 -0.000686 0.017906 0.964594 0.071543
3.467468e+06 0.965438 0.070480 -0.000507 0.017880 -0.000507 0.017880 0.965438 0.070480
3.487302e+06 0.964726 0.069952 -0.000449 0.017977 -0.000449 0.017977 0.964726 0.069952
3.507250e+06 0.965150 0.068726 -0.000582 0.018147 -0.000582 0.018147 0.965150 0.068726
3.527311e+06 0.965335 0.067507 -0.000634 0.018245 -0.000634 0.018245 0.965335 0.067507
3.547488e+06 0.963129 0.067137 -0.000512 0.018286 -0.000512 0.018286 0.963129 0.067137
3.567780e+06 0.965903 0.069042 -0.000481 0.018445 -0.000481 0.018445 0.965903 0.069042
3.588188e+06 0.964806 0.066084 -0.000574 0.018557 -0.000574 0.018557 0.964806 0.066084
3.608712e+06 0.965029 0.066570 -0.000600 0.018611 -0.000600 0.018611 0.965029 0.066570
3.629355e+06 0.965065 0.065645 -0.000558 0.018675 -0.000558 0.018675 0.965065 0.065645
3.650115e+06 0.964922 0.066221 -0.000612 0.018830 -0.000612 0.018830 0.964922 0.066221
