! Touchstone file generated by xDriver.py
# Hz S RI R 50
! Freq ReS11 ImS11 ReS21 ImS21 ReS12 ImS12 ReS22 ImS22
1.000000e+06 0.987939 0.084436 0.000072 0.005976 0.000072 0.005976 0.987939 0.084436
1.012507e+06 0.985448 0.099556 0.000034 0.006105 0.000034 0.006105 0.985448 0.099556
1.025170e+06 0.985296 0.097517 0.000025 0.006112 0.000025 0.006112 0.985296 0.097517
1.037992e+06 0.985870 0.098702 0.000221 0.006256 0.000221 0.006256 0.985870 0.098702
1.050973e+06 0.985536 0.100143 0.000097 0.006305 0.000097 0.006305 0.985536 0.100143
1.064118e+06 0.985870 0.096880 0.000258 0.006501 0.000258 0.006501 0.985870 0.096880
1.077426e+06 0.984980 0.098189 0.000042 0.006310 0.000042 0.006310 0.984980 0.098189
1.090902e+06 0.986285 0.096991 -0.000044 0.006505 -0.000044 0.006505 0.986285 0.096991
1.104545e+06 0.985651 0.094426 0.000101 0.006535 0.000101 0.006535 0.985651 0.094426
1.118360e+06 0.985795 0.094332 -0.000137 0.006721 -0.000137 0.006721 0.985795 0.094332
1.132347e+06 1.014207 0.101711 -0.000026 0.006763 -0.000026 0.006763 1.014207 0.101711
1.146509e+06 1.013933 0.101422 0.000181 0.006970 0.000181 0.006970 1.013933 0.101422
1.160848e+06 1.013891 0.102446 0.000114 0.006841 0.000114 0.006841 1.013891 0.102446
1.175366e+06 1.013391 0.100518 0.000013 0.006769 0.000013 0.006769 1.013391 0.100518
1.190066e+06 1.013174 0.102150 0.000115 0.007166 0.000115 0.007166 1.013174 0.102150
1.204950e+06 1.013333 0.101336 0.000107 0.007120 0.000107 0.007120 1.013333 0.101336
1.220020e+06 1.012828 0.102421 -0.000038 0.007265 -0.000038 0.007265 1.012828 0.102421
1.235279e+06 1.013509 0.101976 -0.000020 0.007306 -0.000020 0.007306 1.013509 0.101976
1.250728e+06 1.011776 0.101602 -0.000033 0.007457 -0.000033 0.007457 1.011776 0.101602
1.266371e+06 1.012460 0.104595 -0.000001 0.007498 -0.000001 0.007498 1.012460 0.104595
1.282209e+06 1.013367 0.101507 0.000071 0.007587 0.000071 0.007587 1.013367 0.101507
1.298245e+06 1.013424 0.102154 -0.000126 0.007770 -0.000126 0.007770 1.013424 0.102154
1.314482e+06 1.012427 0.104282 0.000010 0.007740 0.000010 0.007740 1.012427 0.104282
1.330922e+06 1.012974 0.106173 -0.000044 0.007896 -0.000044 0.007896 1.012974 0.106173
1.347568e+06 1.012719 0.105048 -0.000089 0.007897 -0.000089 0.007897 1.012719 0.105048
1.364421e+06 1.013014 0.103654 0.000016 0.008139 0.000016 0.008139 1.013014 0.103654
1.381486e+06 1.011783 0.106467 -0.000011 0.008264 -0.000011 0.008264 1.011783 0.106467
1.398764e+06 1.012472 0.104365 -0.000077 0.008363 -0.000077 0.008363 1.012472 0.104365
1.416258e+06 1.012210 0.103111 -0.000015 0.008453 -0.000015 0.008453 1.012210 0.103111
1.433971e+06 1.012393 0.104124 -0.000031 0.008481 -0.000031 0.008481 1.012393 0.104124
1.451905e+06 1.012533 0.106307 0.000004 0.008666 0.000004 0.008666 1.012533 0.106307
1.470064e+06 1.012396 0.102150 0.000039 0.008863 0.000039 0.008863 1.012396 0.102150
1.488449e+06 1.011647 0.103734 -0.000039 0.008877 -0.000039 0.008877 1.011647 0.103734
1.507065e+06 1.011664 0.103192 0.000002 0.009012 0.000002 0.009012 1.011664 0.103192
1.525914e+06 1.010993 0.104840 -0.000187 0.009152 -0.000187 0.009152 1.010993 0.104840
1.544998e+06 1.012482 0.103714 0.000049 0.009320 0.000049 0.009320 1.012482 0.103714
1.564321e+06 1.011946 0.105975 0.000071 0.009264 0.000071 0.009264 1.011946 0.105975
1.583885e+06 1.012748 0.104200 0.000014 0.009376 0.000014 0.009376 1.012748 0.104200
1.603695e+06 1.011689 0.106024 -0.000026 0.009532 -0.000026 0.009532 1.011689 0.106024
1.623752e+06 1.011767 0.103825 -0.000060 0.009681 -0.000060 0.009681 1.011767 0.103825
1.644060e+06 1.012064 0.101639 -0.000123 0.009819 -0.000123 0.009819 1.012064 0.101639
1.664622e+06 1.011195 0.103606 -0.000008 0.009903 -0.000008 0.009903 1.011195 0.103606
1.685441e+06 1.011272 0.101856 -0.000046 0.010150 -0.000046 0.010150 1.011272 0.101856
1.706520e+06 1.011142 0.102636 -0.000114 0.010220 -0.000114 0.010220 1.011142 0.102636
1.727863e+06 1.011058 0.102674 -0.000067 0.010378 -0.000067 0.010378 1.011058 0.102674
1.749473e+06 1.010883 0.101188 -0.000022 0.010559 -0.000022 0.010559 1.010883 0.101188
1.771354e+06 1.010344 0.102510 -0.000003 0.010608 -0.000003 0.010608 1.010344 0.102510
1.793507e+06 1.010481 0.101060 -0.000055 0.010698 -0.000055 0.010698 1.010481 0.101060
1.815938e+06 1.010895 0.099651 -0.000068 0.010816 -0.000068 0.010816 1.010895 0.099651
1.838650e+06 1.010753 0.100760 -0.000068 0.011045 -0.000068 0.011045 1.010753 0.100760
1.861646e+06 1.009417 0.103155 -0.000098 0.011009 -0.000098 0.011009 1.009417 0.103155
1.884929e+06 1.010287 0.099856 -0.000151 0.011304 -0.000151 0.011304 1.010287 0.099856
1.908503e+06 1.009904 0.101743 -0.000050 0.011460 -0.000050 0.011460 1.009904 0.101743
1.932372e+06 1.009389 0.100546 -0.000023 0.011508 -0.000023 0.011508 1.009389 0.100546
1.956540e+06 1.009630 0.098990 0.000034 0.011602 0.000034 0.011602 1.009630 0.098990
1.981010e+06 1.009290 0.101434 -0.000088 0.011837 -0.000088 0.011837 1.009290 0.101434
2.005786e+06 1.008587 0.100498 -0.000011 0.012023 -0.000011 0.012023 1.008587 0.100498
2.030872e+06 1.009012 0.098719 -0.000091 0.012180 -0.000091 0.012180 1.009012 0.098719
2.056272e+06 1.009486 0.096992 -0.000130 0.012279 -0.000130 0.012279 1.009486 0.096992
2.081989e+06 1.008292 0.099984 -0.000126 0.012418 -0.000126 0.012418 1.008292 0.099984
2.108028e+06 1.009208 0.094515 -0.000144 0.012639 -0.000144 0.012639 1.009208 0.094515
2.134393e+06 1.008887 0.097128 -0.000126 0.012711 -0.000126 0.012711 1.008887 0.097128
2.161087e+06 1.009087 0.097304 -0.000093 0.012922 -0.000093 0.012922 1.009087 0.097304
2.188115e+06 1.008686 0.095518 -0.000059 0.013034 -0.000059 0.013034 1.008686 0.095518
2.215482e+06 1.009681 0.094491 -0.000139 0.013259 -0.000139 0.013259 1.009681 0.094491
2.243190e+06 1.008313 0.095025 -0.000093 0.013388 -0.000093 0.013388 1.008313 0.095025
2.271245e+06 1.008090 0.095295 -0.000103 0.013554 -0.000103 0.013554 1.008090 0.095295
2.299651e+06 1.008183 0.095996 -0.000146 0.013731 -0.000146 0.013731 1.008183 0.095996
2.328412e+06 1.008545 0.092267 -0.000114 0.013880 -0.000114 0.013880 1.008545 0.092267
2.357533e+06 1.007679 0.092375 -0.000144 0.014111 -0.000144 0.014111 1.007679 0.092375
2.387019e+06 1.008290 0.089423 -0.000107 0.014254 -0.000107 0.014254 1.008290 0.089423
2.416873e+06 1.006726 0.093784 -0.000219 0.014484 -0.000219 0.014484 1.006726 0.093784
2.447100e+06 1.007556 0.089253 -0.000163 0.014563 -0.000163 0.014563 1.007556 0.089253
2.477705e+06 1.007796 0.089261 -0.000051 0.014857 -0.000051 0.014857 1.007796 0.089261
2.508693e+06 1.007401 0.087223 -0.000171 0.015010 -0.000171 0.015010 1.007401 0.087223
2.540069e+06 1.007323 0.088373 -0.000201 0.015131 -0.000201 0.015131 1.007323 0.088373
2.571837e+06 1.006909 0.090003 -0.000138 0.015395 -0.000138 0.015395 1.006909 0.090003
2.604002e+06 1.007856 0.085310 -0.000148 0.015493 -0.000148 0.015493 1.007856 0.085310
2.636570e+06 1.007042 0.085134 -0.000210 0.015709 -0.000210 0.015709 1.007042 0.085134
2.669545e+06 1.007397 0.083180 -0.000203 0.015981 -0.000203 0.015981 1.007397 0.083180
2.702933e+06 1.006074 0.086498 -0.000141 0.016131 -0.000141 0.016131 1.006074 0.086498
2.736737e+06 1.006213 0.084834 -0.000161 0.016252 -0.000161 0.016252 1.006213 0.084834
2.770965e+06 1.006602 0.083473 -0.000165 0.016532 -0.000165 0.016532 1.006602 0.083473
2.805621e+06 1.007138 0.079262 -0.000118 0.016732 -0.000118 0.016732 1.007138 0.079262
2.840710e+06 1.006419 0.082758 -0.000190 0.016942 -0.000190 0.016942 1.006419 0.082758
2.876239e+06 1.006516 0.080373 -0.000167 0.017205 -0.000167 0.017205 1.006516 0.080373
2.912211e+06 1.006320 0.079126 -0.000188 0.017354 -0.000188 0.017354 1.006320 0.079126
2.948633e+06 1.005996 0.079672 -0.000226 0.017611 -0.000226 0.017611 1.005996 0.079672
2.985511e+06 1.006206 0.079545 -0.000148 0.017840 -0.000148 0.017840 1.006206 0.079545
3.022850e+06 1.006302 0.077746 -0.000129 0.017967 -0.000129 0.017967 1.006302 0.077746
3.060657e+06 1.005933 0.076461 -0.000188 0.018265 -0.000188 0.018265 1.005933 0.076461
3.098936e+06 1.005841 0.078625 -0.000152 0.018454 -0.000152 0.018454 1.005841 0.078625
3.137693e+06 1.006125 0.074627 -0.000261 0.018697 -0.000261 0.018697 1.006125 0.074627
3.176936e+06 1.005958 0.072028 -0.000177 0.018851 -0.000177 0.018851 1.005958 0.072028
3.216669e+06 1.004666 0.073964 -0.000193 0.019188 -0.000193 0.019188 1.004666 0.073964
3.256899e+06 1.004939 0.075239 -0.000232 0.019502 -0.000232 0.019502 1.004939 0.075239
3.297632e+06 1.005429 0.070575 -0.000238 0.019652 -0.000238 0.019652 1.005429 0.070575
3.338875e+06 1.005194 0.070357 -0.000191 0.019957 -0.000191 0.019957 1.005194 0.070357
3.380634e+06 1.004573 0.068700 -0.000126 0.020171 -0.000126 0.020171 1.004573 0.068700
3.422915e+06 1.004265 0.068815 -0.000170 0.020524 -0.000170 0.020524 1.004265 0.068815
3.465724e+06 1.004260 0.065409 -0.000281 0.020774 -0.000281 0.020774 1.004260 0.065409
3.509069e+06 1.004240 0.064194 -0.000236 0.021020 -0.000236 0.021020 1.004240 0.064194
3.552956e+06 1.003807 0.064354 -0.000210 0.021281 -0.000210 0.021281 1.003807 0.064354
3.597392e+06 1.003248 0.062743 -0.000270 0.021524 -0.000270 0.021524 1.003248 0.062743
3.642384e+06 1.003409 0.060524 -0.000237 0.021802 -0.000237 0.021802 1.003409 0.060524
3.687939e+06 1.003602 0.058622 -0.000255 0.022067 -0.000255 0.022067 1.003602 0.058622
3.734063e+06 1.003153 0.059446 -0.000186 0.022289 -0.000186 0.022289 1.003153 0.059446
3.780764e+06 1.003256 0.058709 -0.000238 0.022631 -0.000238 0.022631 1.003256 0.058709
3.828049e+06 1.003329 0.054151 -0.000301 0.022871 -0.000301 0.022871 1.003329 0.054151
3.875926e+06 1.003183 0.054087 -0.000254 0.023116 -0.000254 0.023116 1.003183 0.054087
3.924401e+06 1.003063 0.053200 -0.000204 0.023489 -0.000204 0.023489 1.003063 0.053200
3.973483e+06 1.003475 0.053417 -0.000228 0.023793 -0.000228 0.023793 1.003475 0.053417
4.023178e+06 1.003354 0.051420 -0.000254 0.024046 -0.000254 0.024046 1.003354 0.051420
4.073495e+06 1.003452 0.050998 -0.000141 0.024346 -0.000141 0.024346 1.003452 0.050998
4.124442e+06 1.003352 0.046437 -0.000231 0.024627 -0.000231 0.024627 1.003352 0.046437
4.176025e+06 1.003205 0.049234 -0.000250 0.024951 -0.000250 0.024951 1.003205 0.049234
4.228254e+06 1.002823 0.049158 -0.000266 0.025254 -0.000266 0.025254 1.002823 0.049158
4.281136e+06 1.003325 0.046695 -0.000237 0.025574 -0.000237 0.025574 1.003325 0.046695
4.334679e+06 1.003792 0.043203 -0.000225 0.025912 -0.000225 0.025912 1.003792 0.043203
4.388892e+06 1.002840 0.041825 -0.000274 0.026313 -0.000274 0.026313 1.002840 0.041825
4.443783e+06 1.002878 0.043199 -0.000252 0.026566 -0.000252 0.026566 1.002878 0.043199
4.499360e+06 1.002840 0.037427 -0.000272 0.026921 -0.000272 0.026921 1.002840 0.037427
4.555632e+06 1.002610 0.037005 -0.000242 0.027196 -0.000242 0.027196 1.002610 0.037005
4.612609e+06 1.002734 0.034812 -0.000238 0.027514 -0.000238 0.027514 1.002734 0.034812
4.670298e+06 1.002598 0.036416 -0.000282 0.027913 -0.000282 0.027913 1.002598 0.036416
4.728708e+06 1.002539 0.032759 -0.000195 0.028206 -0.000195 0.028206 1.002539 0.032759
4.787849e+06 1.002583 0.030929 -0.000241 0.028650 -0.000241 0.028650 1.002583 0.030929
4.847730e+06 1.002483 0.028189 -0.000233 0.028954 -0.000233 0.028954 1.002483 0.028189
4.908359e+06 1.002593 0.027340 -0.000296 0.029332 -0.000296 0.029332 1.002593 0.027340
4.969747e+06 1.002424 0.024755 -0.000268 0.029733 -0.000268 0.029733 1.002424 0.024755
5.031902e+06 1.002126 0.022059 -0.000195 0.030007 -0.000195 0.030007 1.002126 0.022059
5.094835e+06 1.001368 0.022501 -0.000186 0.030423 -0.000186 0.030423 1.001368 0.022501
5.158555e+06 1.001831 0.021411 -0.000205 0.030813 -0.000205 0.030813 1.001831 0.021411
5.223072e+06 1.001072 0.018961 -0.000161 0.031235 -0.000161 0.031235 1.001072 0.018961
5.288396e+06 1.001587 0.018221 -0.000171 0.031644 -0.000171 0.031644 1.001587 0.018221
5.354537e+06 1.000420 0.019411 -0.000152 0.031999 -0.000152 0.031999 1.000420 0.019411
5.421505e+06 1.001590 0.016785 -0.000147 0.032353 -0.000147 0.032353 1.001590 0.016785
5.489310e+06 1.000673 0.016609 -0.000191 0.032818 -0.000191 0.032818 1.000673 0.016609
5.557964e+06 1.001191 0.015299 -0.000124 0.033241 -0.000124 0.033241 1.001191 0.015299
5.627476e+06 1.000809 0.014259 -0.000221 0.033618 -0.000221 0.033618 1.000809 0.014259
5.697858e+06 0.999927 0.014926 -0.000111 0.034113 -0.000111 0.034113 0.999927 0.014926
5.769120e+06 0.999813 0.016744 -0.000114 0.034557 -0.000114 0.034557 0.999813 0.016744
5.841273e+06 0.999521 0.013297 -0.000164 0.034900 -0.000164 0.034900 0.999521 0.013297
5.914328e+06 0.999640 0.010760 -0.000138 0.035367 -0.000138 0.035367 0.999640 0.010760
5.988297e+06 0.999444 0.009265 -0.000171 0.035835 -0.000171 0.035835 0.999444 0.009265
6.063192e+06 0.998911 0.012208 -0.000214 0.036231 -0.000214 0.036231 0.998911 0.012208
6.139023e+06 0.998863 0.009881 -0.000167 0.036746 -0.000167 0.036746 0.998863 0.009881
6.215802e+06 0.998288 0.007032 -0.000171 0.037178 -0.000171 0.037178 0.998288 0.007032
6.293542e+06 0.998434 0.009467 -0.000221 0.037693 -0.000221 0.037693 0.998434 0.009467
6.372254e+06 0.998472 0.008975 -0.000161 0.038081 -0.000161 0.038081 0.998472 0.008975
6.451950e+06 0.998055 0.002432 -0.000234 0.038558 -0.000234 0.038558 0.998055 0.002432
6.532643e+06 0.998069 0.003569 -0.000128 0.039105 -0.000128 0.039105 0.998069 0.003569
6.614346e+06 0.997716 0.001303 -0.000241 0.039532 -0.000241 0.039532 0.997716 0.001303
6.697070e+06 0.997858 0.000563 -0.000214 0.040109 -0.000214 0.040109 0.997858 0.000563
6.780829e+06 0.997225 -0.000434 -0.000190 0.040593 -0.000190 0.040593 0.997225 -0.000434
6.865635e+06 0.997373 -0.001883 -0.000218 0.041063 -0.000218 0.041063 0.997373 -0.001883
6.951502e+06 0.996832 -0.002366 -0.000226 0.041634 -0.000226 0.041634 0.996832 -0.002366
7.038443e+06 0.997076 -0.004515 -0.000224 0.042211 -0.000224 0.042211 0.997076 -0.004515
7.126471e+06 0.996891 -0.006543 -0.000229 0.042716 -0.000229 0.042716 0.996891 -0.006543
7.215600e+06 0.996735 -0.007520 -0.000186 0.043225 -0.000186 0.043225 0.996735 -0.007520
7.305844e+06 0.996303 -0.006395 -0.000246 0.043790 -0.000246 0.043790 0.996303 -0.006395
7.397217e+06 0.995279 -0.004714 -0.000233 0.044290 -0.000233 0.044290 0.995279 -0.004714
7.489732e+06 0.995723 -0.009802 -0.000257 0.044885 -0.000257 0.044885 0.995723 -0.009802
7.583404e+06 0.995445 -0.011812 -0.000177 0.045458 -0.000177 0.045458 0.995445 -0.011812
7.678248e+06 0.994918 -0.013234 -0.000272 0.046037 -0.000272 0.046037 0.994918 -0.013234
7.774279e+06 0.995157 -0.014407 -0.000218 0.046608 -0.000218 0.046608 0.995157 -0.014407
7.871510e+06 0.995034 -0.013729 -0.000274 0.047230 -0.000274 0.047230 0.995034 -0.013729
7.969957e+06 0.994545 -0.018041 -0.000234 0.047788 -0.000234 0.047788 0.994545 -0.018041
8.069636e+06 0.994908 -0.019154 -0.000260 0.048473 -0.000260 0.048473 0.994908 -0.019154
8.170561e+06 0.994678 -0.018153 -0.000308 0.049118 -0.000308 0.049118 0.994678 -0.018153
8.272748e+06 0.994221 -0.021054 -0.000262 0.049695 -0.000262 0.049695 0.994221 -0.021054
8.376214e+06 0.994064 -0.024539 -0.000270 0.050345 -0.000270 0.050345 0.994064 -0.024539
8.480973e+06 0.993528 -0.024300 -0.000262 0.050907 -0.000262 0.050907 0.993528 -0.024300
8.587043e+06 0.993338 -0.023942 -0.000249 0.051578 -0.000249 0.051578 0.993338 -0.023942
8.694439e+06 0.992795 -0.025269 -0.000296 0.052233 -0.000296 0.052233 0.992795 -0.025269
8.803178e+06 0.992767 -0.029836 -0.000364 0.052893 -0.000364 0.052893 0.992767 -0.029836
8.913278e+06 0.992673 -0.029164 -0.000388 0.053628 -0.000388 0.053628 0.992673 -0.029164
9.024754e+06 0.992477 -0.032274 -0.000357 0.054321 -0.000357 0.054321 0.992477 -0.032274
9.137625e+06 0.992225 -0.028828 -0.000290 0.054980 -0.000290 0.054980 0.992225 -0.028828
9.251907e+06 0.991627 -0.034838 -0.000301 0.055736 -0.000301 0.055736 0.991627 -0.034838
9.367619e+06 0.991752 -0.036284 -0.000425 0.056395 -0.000425 0.056395 0.991752 -0.036284
9.484777e+06 0.991995 -0.036466 -0.000312 0.057138 -0.000312 0.057138 0.991995 -0.036466
9.603401e+06 0.991530 -0.040889 -0.000340 0.057923 -0.000340 0.057923 0.991530 -0.040889
9.723509e+06 0.990971 -0.042921 -0.000233 0.058578 -0.000233 0.058578 0.990971 -0.042921
9.845119e+06 0.990733 -0.042851 -0.000453 0.059309 -0.000453 0.059309 0.990733 -0.042851
9.968250e+06 0.990550 -0.046874 -0.000420 0.060044 -0.000420 0.060044 0.990550 -0.046874
1.009292e+07 0.990170 -0.045736 -0.000265 0.060841 -0.000265 0.060841 0.990170 -0.045736
1.021915e+07 0.990669 -0.052001 -0.000427 0.061658 -0.000427 0.061658 0.990669 -0.052001
1.034696e+07 0.989672 -0.054358 -0.000422 0.062403 -0.000422 0.062403 0.989672 -0.054358
1.047637e+07 0.989912 -0.056357 -0.000406 0.063263 -0.000406 0.063263 0.989912 -0.056357
1.060739e+07 0.989481 -0.059935 -0.000446 0.064014 -0.000446 0.064014 0.989481 -0.059935
1.074006e+07 0.989712 -0.063487 -0.000406 0.064915 -0.000406 0.064915 0.989712 -0.063487
1.087438e+07 0.988972 -0.065924 -0.000426 0.065688 -0.000426 0.065688 0.988972 -0.065924
1.101038e+07 0.988628 -0.066240 -0.000416 0.066579 -0.000416 0.066579 0.988628 -0.066240
1.114809e+07 0.988615 -0.071268 -0.000463 0.067445 -0.000463 0.067445 0.988615 -0.071268
1.128751e+07 0.988087 -0.074919 -0.000417 0.068288 -0.000417 0.068288 0.988087 -0.074919
1.142868e+07 0.987412 -0.078494 -0.000360 0.069226 -0.000360 0.069226 0.987412 -0.078494
1.157162e+07 0.987578 -0.081050 -0.000508 0.070044 -0.000508 0.070044 0.987578 -0.081050
1.171634e+07 0.987207 -0.082038 -0.000410 0.070966 -0.000410 0.070966 0.987207 -0.082038
1.186288e+07 0.987054 -0.085743 -0.000505 0.071876 -0.000505 0.071876 0.987054 -0.085743
1.201124e+07 0.986741 -0.086894 -0.000482 0.072825 -0.000482 0.072825 0.986741 -0.086894
1.216147e+07 0.986926 -0.091655 -0.000523 0.073716 -0.000523 0.073716 0.986926 -0.091655
1.231357e+07 0.986987 -0.092039 -0.000476 0.074764 -0.000476 0.074764 0.986987 -0.092039
1.246757e+07 0.986399 -0.096789 -0.000408 0.075677 -0.000408 0.075677 0.986399 -0.096789
1.262350e+07 0.986127 -0.094235 -0.000378 0.076684 -0.000378 0.076684 0.986127 -0.094235
1.278138e+07 0.986131 -0.096930 -0.000409 0.077694 -0.000409 0.077694 0.986131 -0.096930
1.294123e+07 0.986069 -0.099028 -0.000474 0.078675 -0.000474 0.078675 0.986069 -0.099028
1.310309e+07 0.985537 -0.097556 -0.000351 0.079630 -0.000351 0.079630 0.985537 -0.097556
1.326696e+07 0.985364 -0.102102 -0.000375 0.080731 -0.000375 0.080731 0.985364 -0.102102
1.343289e+07 0.985491 -0.101839 -0.000496 0.081767 -0.000496 0.081767 0.985491 -0.101839
1.360089e+07 0.985261 -0.103660 -0.000468 0.082891 -0.000468 0.082891 0.985261 -0.103660
1.377100e+07 0.985122 -0.103158 -0.000453 0.083947 -0.000453 0.083947 0.985122 -0.103158
1.394323e+07 0.985252 -0.106032 -0.000475 0.085019 -0.000475 0.085019 0.985252 -0.106032
1.411761e+07 0.984895 -0.106520 -0.000399 0.086135 -0.000399 0.086135 0.984895 -0.106520
1.429418e+07 0.984649 -0.109093 -0.000452 0.087295 -0.000452 0.087295 0.984649 -0.109093
1.447295e+07 0.985039 -0.111129 -0.000520 0.088486 -0.000520 0.088486 0.985039 -0.111129
1.465396e+07 0.984553 -0.112458 -0.000550 0.089539 -0.000550 0.089539 0.984553 -0.112458
1.483724e+07 0.984132 -0.110054 -0.000389 0.090784 -0.000389 0.090784 0.984132 -0.110054
1.502280e+07 0.984472 -0.113734 -0.000464 0.091897 -0.000464 0.091897 0.984472 -0.113734
1.521069e+07 0.984140 -0.115141 -0.000600 0.093191 -0.000600 0.093191 0.984140 -0.115141
1.540092e+07 0.984014 -0.115609 -0.000425 0.094391 -0.000425 0.094391 0.984014 -0.115609
1.559354e+07 0.984097 -0.120407 -0.000407 0.095651 -0.000407 0.095651 0.984097 -0.120407
1.578857e+07 0.984201 -0.117817 -0.000459 0.096899 -0.000459 0.096899 0.984201 -0.117817
1.598603e+07 0.984041 -0.118681 -0.000502 0.098229 -0.000502 0.098229 0.984041 -0.118681
1.618596e+07 0.983133 -0.122840 -0.000462 0.099548 -0.000462 0.099548 0.983133 -0.122840
1.638840e+07 0.982928 -0.124185 -0.000470 0.100819 -0.000470 0.100819 0.982928 -0.124185
1.659336e+07 0.982306 -0.124633 -0.000464 0.102166 -0.000464 0.102166 0.982306 -0.124633
