! Touchstone file generated by xDriver.py
# Hz S RI R 50
! Freq ReS11 ImS11 ReS21 ImS21 ReS12 ImS12 ReS22 ImS22
1.000000e+06 0.911439 -0.005510 0.075426 -0.000910 0.075426 -0.000910 0.911439 -0.005510
1.013911e+06 0.908858 -0.002358 0.075204 -0.000936 0.075204 -0.000936 0.908858 -0.002358
1.028016e+06 0.910237 -0.001743 0.075098 -0.000910 0.075098 -0.000910 0.910237 -0.001743
1.042317e+06 0.909412 -0.006430 0.075230 -0.000928 0.075230 -0.000928 0.909412 -0.006430
1.056818e+06 0.910239 -0.002578 0.075319 -0.000834 0.075319 -0.000834 0.910239 -0.002578
1.071519e+06 0.910590 -0.005885 0.075063 -0.000914 0.075063 -0.000914 0.910590 -0.005885
1.086426e+06 0.910208 -0.004047 0.075162 -0.001056 0.075162 -0.001056 0.910208 -0.004047
1.101539e+06 0.908073 -0.002566 0.075166 -0.000994 0.075166 -0.000994 0.908073 -0.002566
1.116863e+06 0.908274 -0.001416 0.075198 -0.001026 0.075198 -0.001026 0.908274 -0.001416
1.132400e+06 0.909134 -0.005115 0.075191 -0.001009 0.075191 -0.001009 0.909134 -0.005115
1.148154e+06 0.908848 -0.002195 0.075213 -0.001096 0.075213 -0.001096 0.908848 -0.002195
1.164126e+06 0.909873 -0.002377 0.075255 -0.000878 0.075255 -0.000878 0.909873 -0.002377
1.180321e+06 0.909367 -0.002225 0.075270 -0.001185 0.075270 -0.001185 0.909367 -0.002225
1.196741e+06 0.909796 -0.003793 0.075114 -0.001016 0.075114 -0.001016 0.909796 -0.003793
1.213389e+06 0.909176 -0.001425 0.075174 -0.000920 0.075174 -0.000920 0.909176 -0.001425
1.230269e+06 0.908358 -0.003431 0.075274 -0.000947 0.075274 -0.000947 0.908358 -0.003431
1.247384e+06 0.909771 -0.002958 0.075197 -0.000854 0.075197 -0.000854 0.909771 -0.002958
1.264736e+06 0.908468 -0.002066 0.075269 -0.000991 0.075269 -0.000991 0.908468 -0.002066
1.282331e+06 0.908720 -0.004709 0.075450 -0.000923 0.075450 -0.000923 0.908720 -0.004709
1.300170e+06 0.911410 -0.000864 0.075274 -0.000922 0.075274 -0.000922 0.911410 -0.000864
1.318257e+06 0.909081 -0.001305 0.075276 -0.000994 0.075276 -0.000994 0.909081 -0.001305
1.336596e+06 0.910217 -0.002477 0.075262 -0.001098 0.075262 -0.001098 0.910217 -0.002477
1.355189e+06 0.909235 -0.001116 0.075233 -0.001084 0.075233 -0.001084 0.909235 -0.001116
1.374042e+06 0.907962 -0.005065 0.075205 -0.000795 0.075205 -0.000795 0.907962 -0.005065
1.393157e+06 0.909784 -0.005648 0.075088 -0.000764 0.075088 -0.000764 0.909784 -0.005648
1.412538e+06 0.911106 -0.002306 0.075227 -0.001068 0.075227 -0.001068 0.911106 -0.002306
1.432188e+06 0.910631 -0.005567 0.075222 -0.000965 0.075222 -0.000965 0.910631 -0.005567
1.452112e+06 0.911057 -0.002928 0.075140 -0.001114 0.075140 -0.001114 0.911057 -0.002928
1.472313e+06 0.909735 -0.003353 0.075348 -0.000889 0.075348 -0.000889 0.909735 -0.003353
1.492794e+06 0.909777 -0.002237 0.075118 -0.001062 0.075118 -0.001062 0.909777 -0.002237
1.513561e+06 0.908503 -0.001875 0.075187 -0.001139 0.075187 -0.001139 0.908503 -0.001875
1.534617e+06 0.910814 -0.003396 0.075213 -0.000861 0.075213 -0.000861 0.910814 -0.003396
1.555966e+06 0.910326 -0.003640 0.075444 -0.000861 0.075444 -0.000861 0.910326 -0.003640
1.577611e+06 0.909557 -0.005219 0.075314 -0.000894 0.075314 -0.000894 0.909557 -0.005219
1.599558e+06 0.909635 -0.001629 0.075364 -0.000871 0.075364 -0.000871 0.909635 -0.001629
1.621810e+06 0.908037 -0.003637 0.075227 -0.000837 0.075227 -0.000837 0.908037 -0.003637
1.644372e+06 0.909523 -0.003004 0.074955 -0.000837 0.074955 -0.000837 0.909523 -0.003004
1.667247e+06 0.910166 -0.005193 0.075165 -0.000934 0.075165 -0.000934 0.910166 -0.005193
1.690441e+06 0.910733 -0.006325 0.075272 -0.000950 0.075272 -0.000950 0.910733 -0.006325
1.713957e+06 0.910556 -0.002970 0.075420 -0.001020 0.075420 -0.001020 0.910556 -0.002970
1.737801e+06 0.909993 -0.001602 0.075125 -0.000922 0.075125 -0.000922 0.909993 -0.001602
1.761976e+06 0.908905 -0.002771 0.075239 -0.000778 0.075239 -0.000778 0.908905 -0.002771
1.786488e+06 0.909308 -0.002168 0.075154 -0.000856 0.075154 -0.000856 0.909308 -0.002168
1.811340e+06 0.910032 -0.006178 0.075342 -0.001069 0.075342 -0.001069 0.910032 -0.006178
1.836538e+06 0.910203 -0.001539 0.075181 -0.000899 0.075181 -0.000899 0.910203 -0.001539
1.862087e+06 0.910243 -0.005270 0.075077 -0.000924 0.075077 -0.000924 0.910243 -0.005270
1.887991e+06 0.910409 -0.000803 0.075181 -0.000840 0.075181 -0.000840 0.910409 -0.000803
1.914256e+06 0.909427 -0.004168 0.075161 -0.000816 0.075161 -0.000816 0.909427 -0.004168
1.940886e+06 0.909321 -0.002718 0.075281 -0.000867 0.075281 -0.000867 0.909321 -0.002718
1.967886e+06 0.910090 -0.004520 0.075153 -0.000927 0.075153 -0.000927 0.910090 -0.004520
1.995262e+06 0.909458 -0.004892 0.075083 -0.000825 0.075083 -0.000825 0.909458 -0.004892
2.023019e+06 0.908851 -0.001250 0.075274 -0.001041 0.075274 -0.001041 0.908851 -0.001250
2.051162e+06 0.911058 -0.003682 0.075010 -0.001131 0.075010 -0.001131 0.911058 -0.003682
2.079697e+06 0.909916 -0.002526 0.075194 -0.000754 0.075194 -0.000754 0.909916 -0.002526
2.108628e+06 0.910774 -0.003136 0.075033 -0.000889 0.075033 -0.000889 0.910774 -0.003136
2.137962e+06 0.910849 -0.001704 0.075170 -0.000959 0.075170 -0.000959 0.910849 -0.001704
2.167704e+06 0.910298 -0.001681 0.075296 -0.000885 0.075296 -0.000885 0.910298 -0.001681
2.197860e+06 0.910041 -0.003920 0.075377 -0.000770 0.075377 -0.000770 0.910041 -0.003920
2.228435e+06 0.909196 0.000066 0.075354 -0.001146 0.075354 -0.001146 0.909196 0.000066
2.259436e+06 0.909690 -0.002500 0.075211 -0.001106 0.075211 -0.001106 0.909690 -0.002500
2.290868e+06 0.909633 -0.005314 0.075226 -0.000994 0.075226 -0.000994 0.909633 -0.005314
2.322737e+06 0.909959 -0.001890 0.075369 -0.001083 0.075369 -0.001083 0.909959 -0.001890
2.355049e+06 0.910512 -0.003729 0.075129 -0.001109 0.075129 -0.001109 0.910512 -0.003729
2.387811e+06 0.910777 -0.003029 0.075207 -0.000942 0.075207 -0.000942 0.910777 -0.003029
2.421029e+06 0.909885 0.000223 0.075113 -0.001028 0.075113 -0.001028 0.909885 0.000223
2.454709e+06 0.910192 -0.001301 0.075261 -0.001029 0.075261 -0.001029 0.910192 -0.001301
2.488857e+06 0.909602 -0.002384 0.075293 -0.000689 0.075293 -0.000689 0.909602 -0.002384
2.523481e+06 0.909556 -0.000459 0.075218 -0.000980 0.075218 -0.000980 0.909556 -0.000459
2.558586e+06 0.909950 -0.004259 0.075140 -0.000797 0.075140 -0.000797 0.909950 -0.004259
2.594179e+06 0.909544 -0.000119 0.075131 -0.001106 0.075131 -0.001106 0.909544 -0.000119
2.630268e+06 0.908843 -0.004005 0.075085 -0.000941 0.075085 -0.000941 0.908843 -0.004005
2.666859e+06 0.908991 -0.005064 0.075245 -0.000806 0.075245 -0.000806 0.908991 -0.005064
2.703958e+06 0.909008 -0.003817 0.075323 -0.001108 0.075323 -0.001108 0.909008 -0.003817
2.741574e+06 0.910310 -0.004498 0.075256 -0.000967 0.075256 -0.000967 0.910310 -0.004498
2.779713e+06 0.909965 -0.000392 0.075077 -0.000867 0.075077 -0.000867 0.909965 -0.000392
2.818383e+06 0.910119 -0.002870 0.075238 -0.000955 0.075238 -0.000955 0.910119 -0.002870
2.857591e+06 0.909790 -0.001032 0.075035 -0.000804 0.075035 -0.000804 0.909790 -0.001032
2.897344e+06 0.908921 -0.000732 0.075296 -0.000913 0.075296 -0.000913 0.908921 -0.000732
2.937650e+06 0.910673 -0.004124 0.075325 -0.000758 0.075325 -0.000758 0.910673 -0.004124
2.978516e+06 0.910050 -0.006603 0.075320 -0.000857 0.075320 -0.000857 0.910050 -0.006603
3.019952e+06 0.911320 -0.005481 0.075375 -0.000840 0.075375 -0.000840 0.911320 -0.005481
3.061963e+06 0.910521 -0.002756 0.075225 -0.001003 0.075225 -0.001003 0.910521 -0.002756
3.104560e+06 0.910293 -0.002487 0.075304 -0.001036 0.075304 -0.001036 0.910293 -0.002487
3.147748e+06 0.909171 -0.003195 0.075193 -0.000962 0.075193 -0.000962 0.909171 -0.003195
3.191538e+06 0.909450 -0.004238 0.075368 -0.000937 0.075368 -0.000937 0.909450 -0.004238
3.235937e+06 0.909637 -0.001998 0.075150 -0.001065 0.075150 -0.001065 0.909637 -0.001998
3.280953e+06 0.910036 -0.000991 0.075213 -0.001050 0.075213 -0.001050 0.910036 -0.000991
3.326596e+06 0.911586 -0.000925 0.075283 -0.001102 0.075283 -0.001102 0.911586 -0.000925
3.372873e+06 0.910811 -0.001435 0.075277 -0.000905 0.075277 -0.000905 0.910811 -0.001435
3.419794e+06 0.909509 -0.002782 0.075208 -0.001014 0.075208 -0.001014 0.909509 -0.002782
3.467369e+06 0.909280 -0.000911 0.074979 -0.000861 0.074979 -0.000861 0.909280 -0.000911
3.515604e+06 0.909885 -0.003463 0.075080 -0.000864 0.075080 -0.000864 0.909885 -0.003463
3.564511e+06 0.909075 -0.004106 0.075147 -0.000804 0.075147 -0.000804 0.909075 -0.004106
3.614099e+06 0.910546 -0.004255 0.075054 -0.000906 0.075054 -0.000906 0.910546 -0.004255
3.664376e+06 0.910414 -0.006285 0.075127 -0.000934 0.075127 -0.000934 0.910414 -0.006285
3.715352e+06 0.910331 -0.003362 0.075270 -0.001130 0.075270 -0.001130 0.910331 -0.003362
3.767038e+06 0.909469 -0.004288 0.075286 -0.000986 0.075286 -0.000986 0.909469 -0.004288
3.819443e+06 0.909986 -0.000885 0.075242 -0.000924 0.075242 -0.000924 0.909986 -0.000885
3.872576e+06 0.909075 -0.004674 0.075245 -0.000853 0.075245 -0.000853 0.909075 -0.004674
3.926449e+06 0.909495 -0.002254 0.075238 -0.000896 0.075238 -0.000896 0.909495 -0.002254
3.981072e+06 0.909783 -0.002547 0.075208 -0.000898 0.075208 -0.000898 0.909783 -0.002547
4.036454e+06 0.909492 -0.005030 0.075273 -0.000991 0.075273 -0.000991 0.909492 -0.005030
4.092607e+06 0.908722 -0.005316 0.075256 -0.000885 0.075256 -0.000885 0.908722 -0.005316
4.149540e+06 0.910397 -0.002862 0.075443 -0.001164 0.075443 -0.001164 0.910397 -0.002862
4.207266e+06 0.911311 -0.000384 0.075408 -0.000884 0.075408 -0.000884 0.911311 -0.000384
4.265795e+06 0.910263 -0.001472 0.075245 -0.000989 0.075245 -0.000989 0.910263 -0.001472
4.325138e+06 0.909774 -0.004359 0.075202 -0.000838 0.075202 -0.000838 0.909774 -0.004359
4.385307e+06 0.909851 -0.003053 0.075293 -0.000697 0.075293 -0.000697 0.909851 -0.003053
4.446313e+06 0.910096 -0.003710 0.075164 -0.001015 0.075164 -0.001015 0.910096 -0.003710
4.508167e+06 0.910467 -0.003396 0.075136 -0.001136 0.075136 -0.001136 0.910467 -0.003396
4.570882e+06 0.909958 -0.004041 0.075276 -0.001004 0.075276 -0.001004 0.909958 -0.004041
4.634469e+06 0.909629 0.000530 0.075228 -0.001303 0.075228 -0.001303 0.909629 0.000530
4.698941e+06 0.909998 -0.000418 0.075338 -0.000807 0.075338 -0.000807 0.909998 -0.000418
4.764310e+06 0.908546 0.001101 0.075179 -0.000820 0.075179 -0.000820 0.908546 0.001101
4.830588e+06 0.909084 -0.003010 0.075224 -0.001086 0.075224 -0.001086 0.909084 -0.003010
4.897788e+06 0.908934 -0.003825 0.075683 -0.001065 0.075683 -0.001065 0.908934 -0.003825
4.965923e+06 0.910069 -0.000361 0.075361 -0.000835 0.075361 -0.000835 0.910069 -0.000361
5.035006e+06 0.909465 -0.001851 0.075273 -0.000840 0.075273 -0.000840 0.909465 -0.001851
5.105050e+06 0.908749 -0.000582 0.075141 -0.000904 0.075141 -0.000904 0.908749 -0.000582
5.176068e+06 0.909515 0.001743 0.075386 -0.000990 0.075386 -0.000990 0.909515 0.001743
5.248075e+06 0.909511 -0.002517 0.075081 -0.000791 0.075081 -0.000791 0.909511 -0.002517
5.321083e+06 0.911600 -0.004687 0.075293 -0.000932 0.075293 -0.000932 0.911600 -0.004687
5.395106e+06 0.909075 -0.001227 0.075126 -0.000891 0.075126 -0.000891 0.909075 -0.001227
5.470160e+06 0.909571 -0.002652 0.075272 -0.000986 0.075272 -0.000986 0.909571 -0.002652
5.546257e+06 0.909154 -0.004115 0.075303 -0.001194 0.075303 -0.001194 0.909154 -0.004115
5.623413e+06 0.910900 -0.000259 0.075053 -0.000953 0.075053 -0.000953 0.910900 -0.000259
5.701643e+06 0.910489 -0.004427 0.075394 -0.000882 0.075394 -0.000882 0.910489 -0.004427
5.780960e+06 0.911730 -0.001534 0.075313 -0.000963 0.075313 -0.000963 0.911730 -0.001534
5.861382e+06 0.910562 -0.001225 0.075338 -0.000845 0.075338 -0.000845 0.910562 -0.001225
5.942922e+06 0.910550 -0.005943 0.075282 -0.000717 0.075282 -0.000717 0.910550 -0.005943
6.025596e+06 0.909254 -0.005031 0.075213 -0.000900 0.075213 -0.000900 0.909254 -0.005031
6.109420e+06 0.910724 -0.002814 0.075139 -0.001029 0.075139 -0.001029 0.910724 -0.002814
6.194411e+06 0.909439 0.000640 0.075277 -0.000807 0.075277 -0.000807 0.909439 0.000640
6.280584e+06 0.909123 -0.007058 0.075303 -0.000927 0.075303 -0.000927 0.909123 -0.007058
6.367955e+06 0.910264 -0.002457 0.075138 -0.001032 0.075138 -0.001032 0.910264 -0.002457
6.456542e+06 0.910621 -0.000836 0.075293 -0.000916 0.075293 -0.000916 0.910621 -0.000836
6.546362e+06 0.909079 -0.005359 0.075413 -0.000835 0.075413 -0.000835 0.909079 -0.005359
6.637431e+06 0.909304 -0.000276 0.074906 -0.000965 0.074906 -0.000965 0.909304 -0.000276
6.729767e+06 0.909431 -0.002204 0.075210 -0.001025 0.075210 -0.001025 0.909431 -0.002204
6.823387e+06 0.910573 -0.002222 0.075332 -0.001121 0.075332 -0.001121 0.910573 -0.002222
6.918310e+06 0.909165 -0.000721 0.075247 -0.000805 0.075247 -0.000805 0.909165 -0.000721
7.014553e+06 0.910038 -0.005750 0.075376 -0.000947 0.075376 -0.000947 0.910038 -0.005750
7.112135e+06 0.908651 -0.004349 0.075390 -0.000896 0.075390 -0.000896 0.908651 -0.004349
7.211075e+06 0.909247 -0.001626 0.075368 -0.000969 0.075368 -0.000969 0.909247 -0.001626
7.311391e+06 0.908913 -0.003693 0.075259 -0.001053 0.075259 -0.001053 0.908913 -0.003693
7.413102e+06 0.909359 -0.000831 0.075345 -0.001100 0.075345 -0.001100 0.909359 -0.000831
7.516229e+06 0.909421 -0.003302 0.075171 -0.000736 0.075171 -0.000736 0.909421 -0.003302
7.620790e+06 0.909340 -0.001810 0.075290 -0.000857 0.075290 -0.000857 0.909340 -0.001810
7.726806e+06 0.910946 -0.002820 0.075328 -0.001107 0.075328 -0.001107 0.910946 -0.002820
7.834296e+06 0.910169 -0.001667 0.075219 -0.000951 0.075219 -0.000951 0.910169 -0.001667
7.943282e+06 0.909783 -0.003718 0.075346 -0.001107 0.075346 -0.001107 0.909783 -0.003718
8.053784e+06 0.908744 -0.004353 0.075227 -0.000744 0.075227 -0.000744 0.908744 -0.004353
8.165824e+06 0.908834 -0.003417 0.075176 -0.000798 0.075176 -0.000798 0.908834 -0.003417
8.279422e+06 0.909532 -0.002699 0.075242 -0.001055 0.075242 -0.001055 0.909532 -0.002699
8.394600e+06 0.910571 -0.001919 0.075209 -0.000951 0.075209 -0.000951 0.910571 -0.001919
8.511380e+06 0.909379 -0.002408 0.075303 -0.000891 0.075303 -0.000891 0.909379 -0.002408
8.629785e+06 0.909840 -0.002170 0.075166 -0.000773 0.075166 -0.000773 0.909840 -0.002170
8.749838e+06 0.908878 -0.003031 0.075268 -0.000834 0.075268 -0.000834 0.908878 -0.003031
8.871560e+06 0.910083 -0.001249 0.075218 -0.000760 0.075218 -0.000760 0.910083 -0.001249
8.994976e+06 0.909375 -0.003002 0.075289 -0.000803 0.075289 -0.000803 0.909375 -0.003002
9.120108e+06 0.910007 -0.001301 0.075236 -0.000906 0.075236 -0.000906 0.910007 -0.001301
9.246982e+06 0.909068 -0.002260 0.075263 -0.000839 0.075263 -0.000839 0.909068 -0.002260
9.375620e+06 0.910403 -0.003235 0.075356 -0.000846 0.075356 -0.000846 0.910403 -0.003235
9.506048e+06 0.909427 -0.004445 0.075275 -0.000902 0.075275 -0.000902 0.909427 -0.004445
9.638290e+06 0.908851 -0.002434 0.075342 -0.000904 0.075342 -0.000904 0.908851 -0.002434
9.772372e+06 0.910798 -0.004616 0.075106 -0.000795 0.075106 -0.000795 0.910798 -0.004616
9.908319e+06 0.911454 -0.004688 0.075226 -0.000867 0.075226 -0.000867 0.911454 -0.004688
1.004616e+07 0.910825 -0.001726 0.075289 -0.000886 0.075289 -0.000886 0.910825 -0.001726
1.018591e+07 0.909808 -0.002280 0.075111 -0.000947 0.075111 -0.000947 0.909808 -0.002280
1.032761e+07 0.909898 -0.003634 0.075204 -0.001052 0.075204 -0.001052 0.909898 -0.003634
1.047129e+07 0.908342 -0.002580 0.075115 -0.000882 0.075115 -0.000882 0.908342 -0.002580
1.061696e+07 0.909742 -0.004511 0.075131 -0.000884 0.075131 -0.000884 0.909742 -0.004511
1.076465e+07 0.909837 -0.007778 0.075284 -0.000697 0.075284 -0.000697 0.909837 -0.007778
1.091440e+07 0.911391 -0.002686 0.075159 -0.000914 0.075159 -0.000914 0.911391 -0.002686
1.106624e+07 0.908675 -0.001863 0.075226 -0.000895 0.075226 -0.000895 0.908675 -0.001863
1.122018e+07 0.909523 -0.003662 0.074959 -0.000997 0.074959 -0.000997 0.909523 -0.003662
1.137627e+07 0.908915 -0.002854 0.075221 -0.000940 0.075221 -0.000940 0.908915 -0.002854
1.153453e+07 0.909475 -0.002756 0.075260 -0.000880 0.075260 -0.000880 0.909475 -0.002756
1.169499e+07 0.908616 -0.000896 0.074995 -0.000680 0.074995 -0.000680 0.908616 -0.000896
1.185769e+07 0.911011 -0.003525 0.075138 -0.000817 0.075138 -0.000817 0.911011 -0.003525
1.202264e+07 0.910447 -0.000956 0.075307 -0.000949 0.075307 -0.000949 0.910447 -0.000956
1.218990e+07 0.909991 -0.002837 0.075131 -0.000829 0.075131 -0.000829 0.909991 -0.002837
1.235947e+07 0.909843 -0.003977 0.075302 -0.000876 0.075302 -0.000876 0.909843 -0.003977
1.253141e+07 0.909147 -0.000863 0.075224 -0.000841 0.075224 -0.000841 0.909147 -0.000863
1.270574e+07 0.908560 -0.004595 0.075330 -0.001113 0.075330 -0.001113 0.908560 -0.004595
1.288250e+07 0.909786 -0.000646 0.075081 -0.001078 0.075081 -0.001078 0.909786 -0.000646
1.306171e+07 0.909810 -0.000240 0.075229 -0.001006 0.075229 -0.001006 0.909810 -0.000240
1.324342e+07 0.909855 -0.002658 0.075251 -0.000759 0.075251 -0.000759 0.909855 -0.002658
1.342765e+07 0.912028 -0.002651 0.075226 -0.000901 0.075226 -0.000901 0.912028 -0.002651
1.361445e+07 0.911097 -0.003193 0.075296 -0.000768 0.075296 -0.000768 0.911097 -0.003193
1.380384e+07 0.909004 0.000883 0.075393 -0.000739 0.075393 -0.000739 0.909004 0.000883
1.399587e+07 0.908571 -0.004973 0.075284 -0.001277 0.075284 -0.001277 0.908571 -0.004973
1.419058e+07 0.911240 -0.002352 0.075420 -0.000944 0.075420 -0.000944 0.911240 -0.002352
1.438799e+07 0.910817 -0.001761 0.075353 -0.001131 0.075353 -0.001131 0.910817 -0.001761
1.458814e+07 0.909495 -0.003335 0.075213 -0.000955 0.075213 -0.000955 0.909495 -0.003335
1.479108e+07 0.909598 -0.002551 0.075172 -0.000993 0.075172 -0.000993 0.909598 -0.002551
1.499685e+07 0.909186 -0.002282 0.075528 -0.000808 0.075528 -0.000808 0.909186 -0.002282
1.520548e+07 0.908917 -0.002991 0.075255 -0.000951 0.075255 -0.000951 0.908917 -0.002991
1.541700e+07 0.909421 -0.005147 0.075184 -0.000992 0.075184 -0.000992 0.909421 -0.005147
1.563148e+07 0.910186 -0.003016 0.075187 -0.000687 0.075187 -0.000687 0.910186 -0.003016
1.584893e+07 0.909598 -0.002723 0.075083 -0.000868 0.075083 -0.000868 0.909598 -0.002723
1.606941e+07 0.910167 -0.003297 0.075224 -0.000972 0.075224 -0.000972 0.910167 -0.003297
1.629296e+07 0.910469 -0.000531 0.075094 -0.001205 0.075094 -0.001205 0.910469 -0.000531
1.651962e+07 0.909698 -0.002434 0.075056 -0.001029 0.075056 -0.001029 0.909698 -0.002434
1.674943e+07 0.909931 -0.002143 0.075254 -0.000870 0.075254 -0.000870 0.909931 -0.002143
1.698244e+07 0.909750 -0.003070 0.075248 -0.000945 0.075248 -0.000945 0.909750 -0.003070
1.721869e+07 0.910297 -0.001331 0.075264 -0.001114 0.075264 -0.001114 0.910297 -0.001331
1.745822e+07 0.909007 -0.003638 0.075424 -0.001004 0.075424 -0.001004 0.909007 -0.003638
1.770109e+07 0.909135 -0.001585 0.075268 -0.000835 0.075268 -0.000835 0.909135 -0.001585
1.794734e+07 0.909322 -0.002658 0.075201 -0.001129 0.075201 -0.001129 0.909322 -0.002658
1.819701e+07 0.909503 -0.002614 0.075243 -0.000838 0.075243 -0.000838 0.909503 -0.002614
1.845015e+07 0.909688 -0.001011 0.075430 -0.001028 0.075430 -0.001028 0.909688 -0.001011
1.870682e+07 0.909309 -0.001943 0.075264 -0.001054 0.075264 -0.001054 0.909309 -0.001943
1.896706e+07 0.909602 -0.003654 0.075099 -0.000871 0.075099 -0.000871 0.909602 -0.003654
1.923092e+07 0.909899 -0.004393 0.075184 -0.000961 0.075184 -0.000961 0.909899 -0.004393
1.949845e+07 0.909895 -0.001075 0.075056 -0.000948 0.075056 -0.000948 0.909895 -0.001075
1.976970e+07 0.910013 0.000554 0.075235 -0.000841 0.075235 -0.000841 0.910013 0.000554
2.004472e+07 0.908525 -0.000009 0.075145 -0.001064 0.075145 -0.001064 0.908525 -0.000009
2.032357e+07 0.911048 -0.005336 0.075321 -0.001105 0.075321 -0.001105 0.911048 -0.005336
2.060630e+07 0.909048 -0.005902 0.075256 -0.000813 0.075256 -0.000813 0.909048 -0.005902
2.089296e+07 0.909428 -0.003910 0.075196 -0.001046 0.075196 -0.001046 0.909428 -0.003910
2.118361e+07 0.910589 -0.003577 0.075242 -0.000984 0.075242 -0.000984 0.910589 -0.003577
2.147830e+07 0.910511 -0.001850 0.075222 -0.000890 0.075222 -0.000890 0.910511 -0.001850
